# vsim -vopt work.hvl_top work.hdl_top -voptargs="+acc=npr" -assertdebug "+UVM_TESTNAME=basic_write_read_reg_test" "+UVM_VERBOSITY=UVM_HIGH" "+define+pulpino_spi_master_subsystem_verification_base_test" -l basic_write_read_reg_test/basic_write_read_reg_test.log -sva -coverage -c -do "log -r /*; add wave -r /*; coverage save -onexit -assert -directive -cvg -codeAll basic_write_read_reg_test/basic_write_read_reg_test_coverage.ucdb; run -all; exit" -wlf basic_write_read_reg_test/waveform.wlf 
# Start time: 12:57:39 on Mar 11,2022
# ** Note: (vsim-3812) Design is being optimized...
# ** Note: (vopt-143) Recognized 1 FSM in module "spi_master_controller(fast)".
# ** Note: (vopt-143) Recognized 1 FSM in module "axi2apb32(fast)".
# ** Note: (vopt-143) Recognized 2 FSMs in module "apb_spi_master(fast)".
# ** Note: (vopt-143) Recognized 1 FSM in module "generic_fifo(fast)".
# ** Note: (vopt-143) Recognized 1 FSM in module "generic_fifo(fast__1)".
# ** Note: (vopt-143) Recognized 1 FSM in module "generic_fifo(fast__2)".
# ** Note: (vopt-143) Recognized 1 FSM in module "generic_fifo(fast__3)".
# ** Note: (vopt-143) Recognized 1 FSM in module "spi_master_rx(fast)".
# //  Questa Sim
# //  Version 10.6c linux Jul 25 2017
# //
# //  Copyright 1991-2017 Mentor Graphics Corporation
# //  All Rights Reserved.
# //
# //  QuestaSim and its associated documentation contain trade
# //  secrets and commercial or financial information that are the property of
# //  Mentor Graphics Corporation and are privileged, confidential,
# //  and exempt from disclosure under the Freedom of Information Act,
# //  5 U.S.C. Section 552. Furthermore, this information
# //  is prohibited from disclosure under the Trade Secrets Act,
# //  18 U.S.C. Section 1905.
# //
# Loading sv_std.std
# Loading mtiUvm.uvm_pkg
# Loading work.spi_master_uvm_pkg(fast)
# Loading work.spi_master_defines_pkg(fast)
# Loading work.axi4_master_driver_bfm(fast)
# Loading work.axi4_master_monitor_bfm(fast)
# Loading work.axi4_globals_pkg(fast)
# Loading work.axi4_master_pkg(fast)
# Loading work.spi_globals_pkg(fast)
# Loading work.axi4_reg_seq_pkg(fast)
# Loading work.spi_slave_driver_bfm(fast)
# Loading work.spi_slave_monitor_bfm(fast)
# Loading work.spi_slave_pkg(fast)
# Loading work.pulpino_spi_master_subsystem_global_pkg(fast)
# Loading work.pulpino_spi_master_subsystem_env_pkg(fast)
# Loading work.spi_slave_seq_pkg(fast)
# Loading work.axi4_master_seq_pkg(fast)
# Loading work.pulpino_spi_master_subsystem_virtual_seq_pkg(fast)
# Loading work.pulpino_spi_master_subsystem_test_pkg(fast)
# Loading work.hvl_top(fast)
# Loading work.hdl_top(fast)
# Loading work.axi4_if_sv_unit(fast)
# Loading work.axi4_if(fast)
# Loading work.axi4_master_agent_bfm(fast)
# Loading work.axi4_master_driver_bfm_sv_unit(fast)
# Loading work.axi4_master_driver_bfm(fast)
# Loading work.axi4_master_monitor_bfm_sv_unit(fast)
# Loading work.axi4_master_monitor_bfm(fast)
# Loading work.spi_if_sv_unit(fast)
# Loading work.spi_if(fast)
# Loading work.config_pkg(fast)
# Loading work.axi_bus_sv_unit(fast)
# Loading work.AXI_BUS(fast)
# Loading work.subsystem_top(fast)
# Loading work.apb_bus_sv_unit(fast)
# Loading work.APB_BUS(fast)
# Loading work.axi2apb_wrap(fast)
# Loading work.axi2apb32(fast)
# Loading work.axi_aw_buffer(fast)
# Loading work.generic_fifo(fast)
# Loading work.cluster_clock_gating(fast)
# Loading work.axi_ar_buffer(fast)
# Loading work.axi_w_buffer(fast)
# Loading work.generic_fifo(fast__1)
# Loading work.axi_r_buffer(fast)
# Loading work.generic_fifo(fast__2)
# Loading work.axi_b_buffer(fast)
# Loading work.generic_fifo(fast__3)
# Loading work.periph_bus_wrap(fast)
# Loading work.apb_node_wrap(fast)
# Loading work.apb_node(fast)
# Loading work.apb_spi_master(fast)
# Loading work.spi_master_apb_if(fast)
# Loading work.spi_master_fifo(fast)
# Loading work.spi_master_controller(fast)
# Loading work.spi_master_clkgen(fast)
# Loading work.spi_master_tx(fast)
# Loading work.spi_master_rx(fast)
# Loading work.spi_slave_agent_bfm(fast)
# Loading work.spi_slave_driver_bfm_sv_unit(fast)
# Loading work.spi_slave_driver_bfm(fast)
# Loading work.spi_slave_monitor_bfm_sv_unit(fast)
# Loading work.spi_slave_monitor_bfm(fast)
# Loading mtiUvm.questa_uvm_pkg(fast)
# Loading work.APB_BUS(fast__1)
# ** Warning: (vsim-3015) ../../src/dv/hdl_top/hdl_top.sv(152): [PCDPC] - Port size (2) does not match connection size (1) for port 'spi_master_csn0'. The port definition is at: ../../src/rtl/subsystem_top.sv(17).
#    Time: 0 ns  Iteration: 0  Instance: /hdl_top/DUT File: ../../src/rtl/subsystem_top.sv
# ** Warning: (vsim-3015) ../../src/rtl/axi2apb/axi2apb_wrap.sv(50): [PCDPC] - Port size (16) does not match connection size (4) for port 'AWID_i'. The port definition is at: ../../src/rtl/axi2apb/axi2apb32.sv(50).
#    Time: 0 ns  Iteration: 0  Instance: /hdl_top/DUT/AXI2APB_BRIDGE/genblk1/axi2apb_i File: ../../src/rtl/axi2apb/axi2apb32.sv
# ** Warning: (vsim-3015) ../../src/rtl/axi2apb/axi2apb_wrap.sv(50): [PCDPC] - Port size (1) does not match connection size (4) for port 'AWUSER_i'. The port definition is at: ../../src/rtl/axi2apb/axi2apb32.sv(59).
#    Time: 0 ns  Iteration: 0  Instance: /hdl_top/DUT/AXI2APB_BRIDGE/genblk1/axi2apb_i File: ../../src/rtl/axi2apb/axi2apb32.sv
# ** Warning: (vsim-3015) ../../src/rtl/axi2apb/axi2apb_wrap.sv(50): [PCDPC] - Port size (32) does not match connection size (64) for port 'WDATA_i'. The port definition is at: ../../src/rtl/axi2apb/axi2apb32.sv(66).
#    Time: 0 ns  Iteration: 0  Instance: /hdl_top/DUT/AXI2APB_BRIDGE/genblk1/axi2apb_i File: ../../src/rtl/axi2apb/axi2apb32.sv
# ** Warning: (vsim-3015) ../../src/rtl/axi2apb/axi2apb_wrap.sv(50): [PCDPC] - Port size (4) does not match connection size (8) for port 'WSTRB_i'. The port definition is at: ../../src/rtl/axi2apb/axi2apb32.sv(67).
#    Time: 0 ns  Iteration: 0  Instance: /hdl_top/DUT/AXI2APB_BRIDGE/genblk1/axi2apb_i File: ../../src/rtl/axi2apb/axi2apb32.sv
# ** Warning: (vsim-3015) ../../src/rtl/axi2apb/axi2apb_wrap.sv(50): [PCDPC] - Port size (1) does not match connection size (4) for port 'WUSER_i'. The port definition is at: ../../src/rtl/axi2apb/axi2apb32.sv(69).
#    Time: 0 ns  Iteration: 0  Instance: /hdl_top/DUT/AXI2APB_BRIDGE/genblk1/axi2apb_i File: ../../src/rtl/axi2apb/axi2apb32.sv
# ** Warning: (vsim-3015) ../../src/rtl/axi2apb/axi2apb_wrap.sv(50): [PCDPC] - Port size (16) does not match connection size (4) for port 'BID_o'. The port definition is at: ../../src/rtl/axi2apb/axi2apb32.sv(75).
#    Time: 0 ns  Iteration: 0  Instance: /hdl_top/DUT/AXI2APB_BRIDGE/genblk1/axi2apb_i File: ../../src/rtl/axi2apb/axi2apb32.sv
# ** Warning: (vsim-3015) ../../src/rtl/axi2apb/axi2apb_wrap.sv(50): [PCDPC] - Port size (1) does not match connection size (4) for port 'BUSER_o'. The port definition is at: ../../src/rtl/axi2apb/axi2apb32.sv(78).
#    Time: 0 ns  Iteration: 0  Instance: /hdl_top/DUT/AXI2APB_BRIDGE/genblk1/axi2apb_i File: ../../src/rtl/axi2apb/axi2apb32.sv
# ** Warning: (vsim-3015) ../../src/rtl/axi2apb/axi2apb_wrap.sv(50): [PCDPC] - Port size (16) does not match connection size (4) for port 'ARID_i'. The port definition is at: ../../src/rtl/axi2apb/axi2apb32.sv(83).
#    Time: 0 ns  Iteration: 0  Instance: /hdl_top/DUT/AXI2APB_BRIDGE/genblk1/axi2apb_i File: ../../src/rtl/axi2apb/axi2apb32.sv
# ** Warning: (vsim-3015) ../../src/rtl/axi2apb/axi2apb_wrap.sv(50): [PCDPC] - Port size (1) does not match connection size (4) for port 'ARUSER_i'. The port definition is at: ../../src/rtl/axi2apb/axi2apb32.sv(92).
#    Time: 0 ns  Iteration: 0  Instance: /hdl_top/DUT/AXI2APB_BRIDGE/genblk1/axi2apb_i File: ../../src/rtl/axi2apb/axi2apb32.sv
# ** Warning: (vsim-3015) ../../src/rtl/axi2apb/axi2apb_wrap.sv(50): [PCDPC] - Port size (16) does not match connection size (4) for port 'RID_o'. The port definition is at: ../../src/rtl/axi2apb/axi2apb32.sv(99).
#    Time: 0 ns  Iteration: 0  Instance: /hdl_top/DUT/AXI2APB_BRIDGE/genblk1/axi2apb_i File: ../../src/rtl/axi2apb/axi2apb32.sv
# ** Warning: (vsim-3015) ../../src/rtl/axi2apb/axi2apb_wrap.sv(50): [PCDPC] - Port size (32) does not match connection size (64) for port 'RDATA_o'. The port definition is at: ../../src/rtl/axi2apb/axi2apb32.sv(100).
#    Time: 0 ns  Iteration: 0  Instance: /hdl_top/DUT/AXI2APB_BRIDGE/genblk1/axi2apb_i File: ../../src/rtl/axi2apb/axi2apb32.sv
# ** Warning: (vsim-3015) ../../src/rtl/axi2apb/axi2apb_wrap.sv(50): [PCDPC] - Port size (1) does not match connection size (4) for port 'RUSER_o'. The port definition is at: ../../src/rtl/axi2apb/axi2apb32.sv(103).
#    Time: 0 ns  Iteration: 0  Instance: /hdl_top/DUT/AXI2APB_BRIDGE/genblk1/axi2apb_i File: ../../src/rtl/axi2apb/axi2apb32.sv
# ** Warning: (vsim-3015) ../../src/rtl/subsystem_top.sv(81): [PCDPC] - Port size (12) does not match connection size (32) for port 'PADDR'. The port definition is at: ../../src/rtl/peripherals/spi_master/apb_spi_master.sv(22).
#    Time: 0 ns  Iteration: 0  Instance: /hdl_top/DUT/DUT File: ../../src/rtl/peripherals/spi_master/apb_spi_master.sv
# ** Warning: (vsim-3015) ../../src/rtl/subsystem_top.sv(81): [PCDPC] - Port size (1) does not match connection size (2) for port 'spi_csn0'. The port definition is at: ../../src/rtl/peripherals/spi_master/apb_spi_master.sv(34).
#    Time: 0 ns  Iteration: 0  Instance: /hdl_top/DUT/DUT File: ../../src/rtl/peripherals/spi_master/apb_spi_master.sv
# Loading /tools/mentor/questasim_10.6c/questasim/uvm-1.1d/linux/uvm_dpi.so
# log -r /*
#  add wave -r /*
#  coverage save -onexit -assert -directive -cvg -codeAll basic_write_read_reg_test/basic_write_read_reg_test_coverage.ucdb
#  run -all
# ----------------------------------------------------------------
# UVM-1.1d
# (C) 2007-2013 Mentor Graphics Corporation
# (C) 2007-2013 Cadence Design Systems, Inc.
# (C) 2006-2013 Synopsys, Inc.
# (C) 2011-2013 Cypress Semiconductor Corp.
# ----------------------------------------------------------------
# 
#   ***********       IMPORTANT RELEASE NOTES         ************
# 
#   You are using a version of the UVM library that has been compiled
#   with `UVM_NO_DEPRECATED undefined.
#   See http://www.eda.org/svdb/view.php?id=3313 for more details.
# 
#   You are using a version of the UVM library that has been compiled
#   with `UVM_OBJECT_MUST_HAVE_CONSTRUCTOR undefined.
#   See http://www.eda.org/svdb/view.php?id=3770 for more details.
# 
#       (Specify +UVM_NO_RELNOTES to turn off this notice)
# 
# UVM_INFO verilog_src/questa_uvm_pkg-1.2/src/questa_uvm_pkg.sv(215) @ 0: reporter [Questa UVM] QUESTA_UVM-1.2.3
# UVM_INFO verilog_src/questa_uvm_pkg-1.2/src/questa_uvm_pkg.sv(217) @ 0: reporter [Questa UVM]  questa_uvm::init(+struct)
# UVM_INFO @ 0: reporter [RNTST] Running test basic_write_read_reg_test...
# UVM_INFO ../../src/dv/hdl_top/hdl_top.sv(24) @ 0: reporter [UVM_INFO] hdl_top
# UVM_INFO ../../src/dv/hdl_top/axi4_master_agent_bfm/axi4_master_driver_bfm.sv(87) @ 0: reporter [AXI4_MASTER_DRIVER_BFM] AXI4_MASTER_DRIVER_BFM
# UVM_INFO ../../src/dv/hdl_top/axi4_master_agent_bfm/axi4_master_agent_bfm.sv(171) @ 0: reporter [axi4 master agent bfm] AXI4 MASTER AGENT BFM
# Slave Driver BFM
# Slave Monitor BFM
# spi_Slave Agent BFM
# UVM_INFO ../../src/dv/hvl_top/test//base_test.sv(71) @ 0: uvm_test_top [basic_write_read_reg_test] 
# pulpino_spi_master_subsystem_ENV_CONFIG
# --------------------------------------------------------------------------------------------
# Name                                    Type                                     Size  Value
# --------------------------------------------------------------------------------------------
# pulpino_spi_master_subsystem_env_cfg_h  pulpino_spi_master_subsystem_env_config  -     @496 
#   has_scoreboard                        integral                                 1     1    
#   has_virtual_seqr                      integral                                 1     1    
#   no_of_spi_slaves                      integral                                 32    'd1  
# --------------------------------------------------------------------------------------------
# 
# UVM_INFO ../../src/dv/hvl_top/test//base_test.sv(80) @ 0: uvm_test_top [basic_write_read_reg_test] 
# axi4_master_agent_CONFIG
# ------------------------------------------------------------------------------
# Name                                Type                      Size  Value     
# ------------------------------------------------------------------------------
# axi4_master_agent_config            axi4_master_agent_config  -     @497      
#   is_active                         string                    10    UVM_ACTIVE
#   has_coverage                      integral                  1     1         
#   wait_count_write_address_channel  integral                  32    'd0       
#   wait_count_write_data_channel     integral                  32    'd0       
#   wait_count_read_address_channel   integral                  32    'd0       
#   outstanding_write_tx              integral                  32    'd0       
#   outstanding_read_tx               integral                  32    'd0       
# ------------------------------------------------------------------------------
# 
# UVM_INFO ../../src/dv/hvl_top/test//base_test.sv(145) @ 0: uvm_test_top [basic_write_read_reg_test] 
# pulpino_spi_master_subsystem_SLAVE_CONFIG[0]
# ----------------------------------------------------------------
# Name                   Type                    Size  Value      
# ----------------------------------------------------------------
# slave_agent_config[0]  spi_slave_agent_config  -     @502       
#   is_active            string                  10    UVM_ACTIVE 
#   slave_id             integral                2     'd0        
#   spi_mode             string                  11    CPOL0_CPHA1
#   shift_dir            string                  9     MSB_FIRST  
#   has_coverage         integral                1     1          
#   spi_type             string                  10    SIMPLE_SPI 
# ----------------------------------------------------------------
# 
# UVM_INFO @ 0: reporter [UVMTOP] UVM testbench topology:
# -------------------------------------------------------------------------------------------------------------
# Name                                              Type                                            Size  Value
# -------------------------------------------------------------------------------------------------------------
# uvm_test_top                                      basic_write_read_reg_test                       -     @473 
#   pulpino_spi_master_subsystem_env                pulpino_spi_master_subsystem_env                -     @588 
#     axi4_master_agent                             axi4_master_agent                               -     @596 
#       axi4_master_cov_h                           axi4_master_coverage                            -     @1634
#         analysis_imp                              uvm_analysis_imp                                -     @1641
#       axi4_master_drv_proxy_h                     axi4_master_driver_proxy                        -     @1079
#         axi4_master_read_fifo_h                   uvm_tlm_analysis_fifo #(T)                      -     @1181
#           analysis_export                         uvm_analysis_imp                                -     @1220
#           get_ap                                  uvm_analysis_port                               -     @1212
#           get_peek_export                         uvm_get_peek_imp                                -     @1196
#           put_ap                                  uvm_analysis_port                               -     @1204
#           put_export                              uvm_put_imp                                     -     @1188
#         axi4_master_write_fifo_h                  uvm_tlm_analysis_fifo #(T)                      -     @1134
#           analysis_export                         uvm_analysis_imp                                -     @1173
#           get_ap                                  uvm_analysis_port                               -     @1165
#           get_peek_export                         uvm_get_peek_imp                                -     @1149
#           put_ap                                  uvm_analysis_port                               -     @1157
#           put_export                              uvm_put_imp                                     -     @1141
#         axi_read_rsp_port                         uvm_analysis_port                               -     @1126
#         axi_read_seq_item_port                    uvm_seq_item_pull_port                          -     @1110
#         axi_write_rsp_port                        uvm_analysis_port                               -     @1118
#         axi_write_seq_item_port                   uvm_seq_item_pull_port                          -     @1102
#         rsp_port                                  uvm_analysis_port                               -     @1094
#         seq_item_port                             uvm_seq_item_pull_port                          -     @1086
#       axi4_master_mon_proxy_h                     axi4_master_monitor_proxy                       -     @1446
#         axi4_master_read_address_analysis_port    uvm_analysis_port                               -     @1453
#         axi4_master_read_data_analysis_port       uvm_analysis_port                               -     @1461
#         axi4_master_read_fifo_h                   uvm_tlm_analysis_fifo #(T)                      -     @1587
#           analysis_export                         uvm_analysis_imp                                -     @1626
#           get_ap                                  uvm_analysis_port                               -     @1618
#           get_peek_export                         uvm_get_peek_imp                                -     @1602
#           put_ap                                  uvm_analysis_port                               -     @1610
#           put_export                              uvm_put_imp                                     -     @1594
#         axi4_master_write_address_analysis_port   uvm_analysis_port                               -     @1469
#         axi4_master_write_address_fifo_h          uvm_tlm_analysis_fifo #(T)                      -     @1493
#           analysis_export                         uvm_analysis_imp                                -     @1532
#           get_ap                                  uvm_analysis_port                               -     @1524
#           get_peek_export                         uvm_get_peek_imp                                -     @1508
#           put_ap                                  uvm_analysis_port                               -     @1516
#           put_export                              uvm_put_imp                                     -     @1500
#         axi4_master_write_data_analysis_port      uvm_analysis_port                               -     @1477
#         axi4_master_write_data_fifo_h             uvm_tlm_analysis_fifo #(T)                      -     @1540
#           analysis_export                         uvm_analysis_imp                                -     @1579
#           get_ap                                  uvm_analysis_port                               -     @1571
#           get_peek_export                         uvm_get_peek_imp                                -     @1555
#           put_ap                                  uvm_analysis_port                               -     @1563
#           put_export                              uvm_put_imp                                     -     @1547
#         axi4_master_write_response_analysis_port  uvm_analysis_port                               -     @1485
#       axi4_master_read_seqr_h                     axi4_master_read_sequencer                      -     @1337
#         rsp_export                                uvm_analysis_export                             -     @1344
#         seq_item_export                           uvm_seq_item_pull_imp                           -     @1438
#         arbitration_queue                         array                                           0     -    
#         lock_queue                                array                                           0     -    
#         num_last_reqs                             integral                                        32    'd1  
#         num_last_rsps                             integral                                        32    'd1  
#       axi4_master_write_seqr_h                    axi4_master_write_sequencer                     -     @1228
#         rsp_export                                uvm_analysis_export                             -     @1235
#         seq_item_export                           uvm_seq_item_pull_imp                           -     @1329
#         arbitration_queue                         array                                           0     -    
#         lock_queue                                array                                           0     -    
#         num_last_reqs                             integral                                        32    'd1  
#         num_last_rsps                             integral                                        32    'd1  
#     axi4_master_coll_h                            axi4_master_collector                           -     @1008
#       axi4_master_coll_analysis_port              uvm_analysis_port                               -     @1015
#       axi4_master_coll_imp_port                   uvm_analysis_imp                                -     @1023
#     axi4_reg_predictor_h                          uvm_reg_predictor #(axi4_master_tx)             -     @1054
#       bus_in                                      uvm_analysis_imp                                -     @1061
#       reg_ap                                      uvm_analysis_port                               -     @1069
#     pulpino_spi_master_subsystem_scoreboard_h     pulpino_spi_master_subsystem_scoreboard         -     @719 
#       axi4_master_read_address_analysis_fifo      uvm_tlm_analysis_fifo #(T)                      -     @867 
#         analysis_export                           uvm_analysis_imp                                -     @906 
#         get_ap                                    uvm_analysis_port                               -     @898 
#         get_peek_export                           uvm_get_peek_imp                                -     @882 
#         put_ap                                    uvm_analysis_port                               -     @890 
#         put_export                                uvm_put_imp                                     -     @874 
#       axi4_master_read_data_analysis_fifo         uvm_tlm_analysis_fifo #(T)                      -     @914 
#         analysis_export                           uvm_analysis_imp                                -     @953 
#         get_ap                                    uvm_analysis_port                               -     @945 
#         get_peek_export                           uvm_get_peek_imp                                -     @929 
#         put_ap                                    uvm_analysis_port                               -     @937 
#         put_export                                uvm_put_imp                                     -     @921 
#       axi4_master_write_address_analysis_fifo     uvm_tlm_analysis_fifo #(T)                      -     @726 
#         analysis_export                           uvm_analysis_imp                                -     @765 
#         get_ap                                    uvm_analysis_port                               -     @757 
#         get_peek_export                           uvm_get_peek_imp                                -     @741 
#         put_ap                                    uvm_analysis_port                               -     @749 
#         put_export                                uvm_put_imp                                     -     @733 
#       axi4_master_write_data_analysis_fifo        uvm_tlm_analysis_fifo #(T)                      -     @773 
#         analysis_export                           uvm_analysis_imp                                -     @812 
#         get_ap                                    uvm_analysis_port                               -     @804 
#         get_peek_export                           uvm_get_peek_imp                                -     @788 
#         put_ap                                    uvm_analysis_port                               -     @796 
#         put_export                                uvm_put_imp                                     -     @780 
#       axi4_master_write_response_analysis_fifo    uvm_tlm_analysis_fifo #(T)                      -     @820 
#         analysis_export                           uvm_analysis_imp                                -     @859 
#         get_ap                                    uvm_analysis_port                               -     @851 
#         get_peek_export                           uvm_get_peek_imp                                -     @835 
#         put_ap                                    uvm_analysis_port                               -     @843 
#         put_export                                uvm_put_imp                                     -     @827 
#       spi_slave_analysis_fifo                     uvm_tlm_analysis_fifo #(T)                      -     @961 
#         analysis_export                           uvm_analysis_imp                                -     @1000
#         get_ap                                    uvm_analysis_port                               -     @992 
#         get_peek_export                           uvm_get_peek_imp                                -     @976 
#         put_ap                                    uvm_analysis_port                               -     @984 
#         put_export                                uvm_put_imp                                     -     @968 
#     pulpino_spi_master_subsystem_virtual_seqr_h   pulpino_spi_master_subsystem_virtual_sequencer  -     @610 
#       axi4_master_read_seqr_h                     axi4_master_read_sequencer                      -     @1776
#         rsp_export                                uvm_analysis_export                             -     @1783
#         seq_item_export                           uvm_seq_item_pull_imp                           -     @1877
#         arbitration_queue                         array                                           0     -    
#         lock_queue                                array                                           0     -    
#         num_last_reqs                             integral                                        32    'd1  
#         num_last_rsps                             integral                                        32    'd1  
#       axi4_master_write_seqr_h                    axi4_master_write_sequencer                     -     @1667
#         rsp_export                                uvm_analysis_export                             -     @1674
#         seq_item_export                           uvm_seq_item_pull_imp                           -     @1768
#         arbitration_queue                         array                                           0     -    
#         lock_queue                                array                                           0     -    
#         num_last_reqs                             integral                                        32    'd1  
#         num_last_rsps                             integral                                        32    'd1  
#       rsp_export                                  uvm_analysis_export                             -     @617 
#       seq_item_export                             uvm_seq_item_pull_imp                           -     @711 
#       spi_slave_seqr_h                            spi_slave_sequencer                             -     @1885
#         rsp_export                                uvm_analysis_export                             -     @1892
#         seq_item_export                           uvm_seq_item_pull_imp                           -     @1986
#         arbitration_queue                         array                                           0     -    
#         lock_queue                                array                                           0     -    
#         num_last_reqs                             integral                                        32    'd1  
#         num_last_rsps                             integral                                        32    'd1  
#       arbitration_queue                           array                                           0     -    
#       lock_queue                                  array                                           0     -    
#       num_last_reqs                               integral                                        32    'd1  
#       num_last_rsps                               integral                                        32    'd1  
#     spi_slave_agent_h[0]                          spi_slave_agent                                 -     @603 
#       spi_slave_cov_h                             spi_slave_coverage                              -     @2158
#         analysis_imp                              uvm_analysis_imp                                -     @2165
#       spi_slave_drv_proxy_h                       spi_slave_driver_proxy                          -     @2011
#         rsp_port                                  uvm_analysis_port                               -     @2026
#         seq_item_port                             uvm_seq_item_pull_port                          -     @2018
#       spi_slave_mon_proxy_h                       spi_slave_monitor_proxy                         -     @2143
#         spi_slave_analysis_port                   uvm_analysis_port                               -     @2150
#       spi_slave_seqr_h                            spi_slave_sequencer                             -     @2034
#         rsp_export                                uvm_analysis_export                             -     @2041
#         seq_item_export                           uvm_seq_item_pull_imp                           -     @2135
#         arbitration_queue                         array                                           0     -    
#         lock_queue                                array                                           0     -    
#         num_last_reqs                             integral                                        32    'd1  
#         num_last_rsps                             integral                                        32    'd1  
#     spi_slave_coll_h                              spi_slave_collector                             -     @1031
#       spi_slave_coll_analysis_port                uvm_analysis_port                               -     @1038
#       spi_slave_coll_imp_port                     uvm_analysis_imp                                -     @1046
# -------------------------------------------------------------------------------------------------------------
# 
# UVM_INFO verilog_src/questa_uvm_pkg-1.2/src/questa_uvm_pkg.sv(277) @ 0: reporter [Questa UVM] End Of Elaboration
# UVM_INFO ../../src/dv/hvl_top/test//basic_write_read_reg_test.sv(90) @ 0: uvm_test_top [basic_write_read_reg_test] basic_write_read_reg_test
# UVM_INFO ../../src/dv/hvl_top/spi_slave_agent//spi_slave_monitor_proxy.sv(222) @ 0: uvm_test_top.pulpino_spi_master_subsystem_env.spi_slave_agent_h[0].spi_slave_mon_proxy_h [spi_slave_monitor_proxy] Inside the spi_slave_monitor_proxy
# UVM_INFO ../../src/dv/hvl_top/test/virtual_sequences//virtual_basic_write_read_reg_seq.sv(57) @ 0: uvm_test_top.pulpino_spi_master_subsystem_env.pulpino_spi_master_subsystem_virtual_seqr_h@@virtual_basic_write_read_reg_seq_h [master_vseq] started master vseq
# UVM_INFO ../../src/dv/hvl_top/test/virtual_sequences//virtual_basic_write_read_reg_seq.sv(47) @ 0: uvm_test_top.pulpino_spi_master_subsystem_env.pulpino_spi_master_subsystem_virtual_seqr_h@@virtual_basic_write_read_reg_seq_h [slave_vseq] started slave vseq
# UVM_INFO ../../src/dv/hvl_top/test/sequences/master_sequences/reg_sequences//axi4_master_basic_write_read_reg_seq.sv(57) @ 0: uvm_test_top.pulpino_spi_master_subsystem_env.axi4_master_agent.axi4_master_write_seqr_h@@axi4_master_basic_write_read_reg_seq_h [CLOCK_DIV_REG_SEQ] WRITE:: REGISTER : spi_master_reg_block.CLKDIV, DATA = 32'h1
# UVM_INFO ../../src/dv/hvl_top/axi4_master_agent//axi4_master_adapter.sv(53) @ 0: reporter [MSHA_DEBUG] 
#  rw.address = 1a102004 rw.data = 1
# UVM_INFO ../../src/dv/hvl_top/axi4_master_agent//axi4_master_adapter.sv(73) @ 0: reporter [axi4_master_adapter] The converted reg2bus packet is -----------------------------------------------------------------------------------
# Name                                 Type            Size  Value                   
# -----------------------------------------------------------------------------------
# axi4_master_tx                       axi4_master_tx  -     @2216                   
#   tx_type                            string          5     WRITE                   
#   awid                               string          6     AWID_0                  
#   awaddr                             integral        32    'h1a102004              
#   awlen                              integral        8     'd0                     
#   awsize                             string          13    WRITE_4_BYTES           
#   awburst                            string          10    WRITE_INCR              
#   awlock                             string          19    WRITE_NORMAL_ACCESS     
#   awcache                            string          16    WRITE_BUFFERABLE        
#   awprot                             string          24    WRITE_NORMAL_SECURE_DATA
#   awqos                              integral        4     'h0                     
#   wait_count_write_address_channel   integral        32    'h0                     
#   wdata[0]                           integral        64    'h1                     
#   wait_count_write_data_channel      integral        32    'h0                     
#   bid                                string          5     BID_0                   
#   bresp                              string          10    WRITE_OKAY              
#   no_of_wait_states                  integral        32    'd0                     
#   wait_count_write_response_channel  integral        32    'h0                     
#   transfer_type                      string          14    BLOCKING_WRITE          
# -----------------------------------------------------------------------------------
# 
# 
# UVM_INFO ../../src/dv/hdl_top/axi4_master_agent_bfm/axi4_master_driver_bfm.sv(96) @ 15: reporter [AXI4_MASTER_DRIVER_BFM] SYSTEM RESET DETECTED
# UVM_INFO ../../src/dv/hdl_top/axi4_master_agent_bfm/axi4_master_monitor_bfm.sv(87) @ 15: reporter [FROM MASTER MON BFM] SYSTEM RESET DETECTED
# UVM_INFO ../../src/dv/hdl_top/spi_slave_agent_bfm/spi_slave_driver_bfm.sv(48) @ 15: reporter [spi_slave_driver_bfm] System reset detected
# UVM_INFO ../../src/dv/hdl_top/spi_slave_agent_bfm/spi_slave_monitor_bfm.sv(44) @ 15: reporter [spi_slave_monitor_bfm] System reset detected
# UVM_INFO ../../src/dv/hdl_top/axi4_master_agent_bfm/axi4_master_driver_bfm.sv(103) @ 50: reporter [AXI4_MASTER_DRIVER_BFM] SYSTEM RESET DEACTIVATED
# UVM_INFO ../../src/dv/hdl_top/axi4_master_agent_bfm/axi4_master_monitor_bfm.sv(89) @ 50: reporter [FROM MASTER MON BFM] SYSTEM RESET DEACTIVATED
# UVM_INFO ../../src/dv/hdl_top/axi4_master_agent_bfm/axi4_master_monitor_bfm.sv(151) @ 50: reporter [FROM MASTER MON BFM] AFTER WHILE LOOP OF WRITE RESPONSE
# UVM_INFO ../../src/dv/hdl_top/spi_slave_agent_bfm/spi_slave_monitor_bfm.sv(46) @ 50: reporter [spi_slave_monitor_bfm] System reset deactivated
# UVM_INFO ../../src/dv/hdl_top/spi_slave_agent_bfm/spi_slave_driver_bfm.sv(50) @ 50: reporter [spi_slave_driver_bfm] System reset deactivated
# UVM_INFO ../../src/dv/hvl_top/axi4_master_agent//axi4_master_driver_proxy.sv(167) @ 50: uvm_test_top.pulpino_spi_master_subsystem_env.axi4_master_agent.axi4_master_drv_proxy_h [axi4_master_driver_proxy] WRITE_TASK::Before Sending_req_write_packet = 
#  -----------------------------------------------------------------------------------
# Name                                 Type            Size  Value                   
# -----------------------------------------------------------------------------------
# axi4_master_tx                       axi4_master_tx  -     @2216                   
#   tx_type                            string          5     WRITE                   
#   awid                               string          6     AWID_0                  
#   awaddr                             integral        32    'h1a102004              
#   awlen                              integral        8     'd0                     
#   awsize                             string          13    WRITE_4_BYTES           
#   awburst                            string          10    WRITE_INCR              
#   awlock                             string          19    WRITE_NORMAL_ACCESS     
#   awcache                            string          16    WRITE_BUFFERABLE        
#   awprot                             string          24    WRITE_NORMAL_SECURE_DATA
#   awqos                              integral        4     'h0                     
#   wait_count_write_address_channel   integral        32    'h0                     
#   wdata[0]                           integral        64    'h1                     
#   wait_count_write_data_channel      integral        32    'h0                     
#   bid                                string          5     BID_0                   
#   bresp                              string          10    WRITE_OKAY              
#   no_of_wait_states                  integral        32    'd0                     
#   wait_count_write_response_channel  integral        32    'h0                     
#   transfer_type                      string          14    BLOCKING_WRITE          
# -----------------------------------------------------------------------------------
# 
# UVM_INFO ../../src/dv/hvl_top/axi4_master_agent//axi4_master_seq_item_converter.sv(47) @ 50: reporter [axi4_master_seq_item_conv_class] ----------------------------------------------------------------------
# UVM_INFO ../../src/dv/hvl_top/axi4_master_agent//axi4_master_seq_item_converter.sv(49) @ 50: reporter [axi4_master_seq_item_conv_class] After converting awid =  0000
# UVM_INFO ../../src/dv/hvl_top/axi4_master_agent//axi4_master_seq_item_converter.sv(52) @ 50: reporter [axi4_master_seq_item_conv_class] After converting awlen =  00000000
# UVM_INFO ../../src/dv/hvl_top/axi4_master_agent//axi4_master_seq_item_converter.sv(55) @ 50: reporter [axi4_master_seq_item_conv_class] After randomizing awsize =  010
# UVM_INFO ../../src/dv/hvl_top/axi4_master_agent//axi4_master_seq_item_converter.sv(58) @ 50: reporter [axi4_master_seq_item_conv_class] After converting awburst =  01
# UVM_INFO ../../src/dv/hvl_top/axi4_master_agent//axi4_master_seq_item_converter.sv(61) @ 50: reporter [axi4_master_seq_item_conv_class] After converting awlock =  0
# UVM_INFO ../../src/dv/hvl_top/axi4_master_agent//axi4_master_seq_item_converter.sv(64) @ 50: reporter [axi4_master_seq_item_conv_class] After randomizing awcache =  0000
# UVM_INFO ../../src/dv/hvl_top/axi4_master_agent//axi4_master_seq_item_converter.sv(67) @ 50: reporter [axi4_master_seq_item_conv_class] After randomizing awprot =  000
# UVM_INFO ../../src/dv/hvl_top/axi4_master_agent//axi4_master_seq_item_converter.sv(70) @ 50: reporter [axi4_master_seq_item_conv_class] After converting bid =  0000
# UVM_INFO ../../src/dv/hvl_top/axi4_master_agent//axi4_master_seq_item_converter.sv(73) @ 50: reporter [axi4_master_seq_item_conv_class] After converting bresp =  00
# UVM_INFO ../../src/dv/hvl_top/axi4_master_agent//axi4_master_seq_item_converter.sv(76) @ 50: reporter [axi4_master_seq_item_conv_class] After converting buser =  0
# UVM_INFO ../../src/dv/hvl_top/axi4_master_agent//axi4_master_seq_item_converter.sv(81) @ 50: reporter [axi4_master_seq_item_conv_class] After converting awaddr =  1a102004
# UVM_INFO ../../src/dv/hvl_top/axi4_master_agent//axi4_master_seq_item_converter.sv(84) @ 50: reporter [axi4_master_seq_item_conv_class] After converting awqos =  0
# UVM_INFO ../../src/dv/hvl_top/axi4_master_agent//axi4_master_seq_item_converter.sv(89) @ 50: reporter [axi4_master_seq_item_conv_class] After converting wdata =  0 0 0 0 0 0 0 0 0 0 0 0 0 0 0 0 0 0 0 0 0 0 0 0 0 0 0 0 0 0 0 0 0 0 0 0 0 0 0 0 0 0 0 0 0 0 0 0 0 0 0 0 0 0 0 0 0 0 0 0 0 0 0 0 0 0 0 0 0 0 0 0 0 0 0 0 0 0 0 0 0 0 0 0 0 0 0 0 0 0 0 0 0 0 0 0 0 0 0 0 0 0 0 0 0 0 0 0 0 0 0 0 0 0 0 0 0 0 0 0 0 0 0 0 0 0 0 0 0 0 0 0 0 0 0 0 0 0 0 0 0 0 0 0 0 0 0 0 0 0 0 0 0 0 0 0 0 0 0 0 0 0 0 0 0 0 0 0 0 0 0 0 0 0 0 0 0 0 0 0 0 0 0 0 0 0 0 0 0 0 0 0 0 0 0 0 0 0 0 0 0 0 0 0 0 0 0 0 0 0 0 0 0 0 0 0 0 0 0 0 0 0 0 0 0 0 0 0 0 0 0 0 0 0 0 0 0 0 0 0 0 0 0 0 0 0 0 0 0 0 0 0 0 0 0 0 1
# UVM_INFO ../../src/dv/hvl_top/axi4_master_agent//axi4_master_seq_item_converter.sv(96) @ 50: reporter [axi4_master_seq_item_conv_class] After converting wstrb = 0
# UVM_INFO ../../src/dv/hvl_top/axi4_master_agent//axi4_master_seq_item_converter.sv(101) @ 50: reporter [axi4_master_seq_item_conv_class] After converting wlast =  0
# UVM_INFO ../../src/dv/hvl_top/axi4_master_agent//axi4_master_seq_item_converter.sv(104) @ 50: reporter [axi4_master_seq_item_conv_class] After converting wuser =  0
# UVM_INFO ../../src/dv/hvl_top/axi4_master_agent//axi4_master_seq_item_converter.sv(107) @ 50: reporter [axi4_master_seq_item_conv_class] After converting no_wait_states =  0
# UVM_INFO ../../src/dv/hvl_top/axi4_master_agent//axi4_master_driver_proxy.sv(192) @ 50: uvm_test_top.pulpino_spi_master_subsystem_env.axi4_master_agent.axi4_master_drv_proxy_h [axi4_master_driver_proxy] WRITE_TASK::Checking transfer type = BLOCKING_WRITE
# UVM_INFO ../../src/dv/hdl_top/spi_slave_agent_bfm/spi_slave_driver_bfm.sv(64) @ 60: reporter [spi_slave_driver_bfm] IDLE condition has been detected
# UVM_INFO ../../src/dv/hdl_top/spi_slave_agent_bfm/spi_slave_monitor_bfm.sv(60) @ 60: reporter [spi_slave_monitor_bfm] IDLE condition has been detected
# UVM_INFO ../../src/dv/hdl_top/axi4_master_agent_bfm/axi4_master_driver_bfm.sv(117) @ 70: reporter [AXI4_MASTER_DRIVER_BFM] data_write_packet=
# '{awid:0, awaddr:437264388, awlen:0, awsize:2, awburst:1, awlock:0, awcache:0, awqos:0, awregion:0, awuser:0, awprot:0, awvalid:0, awready:0, wdata:'{0, 0, 0, 0, 0, 0, 0, 0, 0, 0, 0, 0, 0, 0, 0, 0, 0, 0, 0, 0, 0, 0, 0, 0, 0, 0, 0, 0, 0, 0, 0, 0, 0, 0, 0, 0, 0, 0, 0, 0, 0, 0, 0, 0, 0, 0, 0, 0, 0, 0, 0, 0, 0, 0, 0, 0, 0, 0, 0, 0, 0, 0, 0, 0, 0, 0, 0, 0, 0, 0, 0, 0, 0, 0, 0, 0, 0, 0, 0, 0, 0, 0, 0, 0, 0, 0, 0, 0, 0, 0, 0, 0, 0, 0, 0, 0, 0, 0, 0, 0, 0, 0, 0, 0, 0, 0, 0, 0, 0, 0, 0, 0, 0, 0, 0, 0, 0, 0, 0, 0, 0, 0, 0, 0, 0, 0, 0, 0, 0, 0, 0, 0, 0, 0, 0, 0, 0, 0, 0, 0, 0, 0, 0, 0, 0, 0, 0, 0, 0, 0, 0, 0, 0, 0, 0, 0, 0, 0, 0, 0, 0, 0, 0, 0, 0, 0, 0, 0, 0, 0, 0, 0, 0, 0, 0, 0, 0, 0, 0, 0, 0, 0, 0, 0, 0, 0, 0, 0, 0, 0, 0, 0, 0, 0, 0, 0, 0, 0, 0, 0, 0, 0, 0, 0, 0, 0, 0, 0, 0, 0, 0, 0, 0, 0, 0, 0, 0, 0, 0, 0, 0, 0, 0, 0, 0, 0, 0, 0, 0, 0, 0, 0, 0, 0, 0, 0, 0, 0, 0, 0, 0, 0, 0, 0, 0, 0, 0, 0, 0, 0, 0, 0, 0, 0, 0, 0, 1}, wstrb:'{0, 0, 0, 0, 0, 0, 0, 0, 0, 0, 0, 0, 0, 0, 0, 0, 0, 0, 0, 0, 0, 0, 0, 0, 0, 0, 0, 0, 0, 0, 0, 0, 0, 0, 0, 0, 0, 0, 0, 0, 0, 0, 0, 0, 0, 0, 0, 0, 0, 0, 0, 0, 0, 0, 0, 0, 0, 0, 0, 0, 0, 0, 0, 0, 0, 0, 0, 0, 0, 0, 0, 0, 0, 0, 0, 0, 0, 0, 0, 0, 0, 0, 0, 0, 0, 0, 0, 0, 0, 0, 0, 0, 0, 0, 0, 0, 0, 0, 0, 0, 0, 0, 0, 0, 0, 0, 0, 0, 0, 0, 0, 0, 0, 0, 0, 0, 0, 0, 0, 0, 0, 0, 0, 0, 0, 0, 0, 0, 0, 0, 0, 0, 0, 0, 0, 0, 0, 0, 0, 0, 0, 0, 0, 0, 0, 0, 0, 0, 0, 0, 0, 0, 0, 0, 0, 0, 0, 0, 0, 0, 0, 0, 0, 0, 0, 0, 0, 0, 0, 0, 0, 0, 0, 0, 0, 0, 0, 0, 0, 0, 0, 0, 0, 0, 0, 0, 0, 0, 0, 0, 0, 0, 0, 0, 0, 0, 0, 0, 0, 0, 0, 0, 0, 0, 0, 0, 0, 0, 0, 0, 0, 0, 0, 0, 0, 0, 0, 0, 0, 0, 0, 0, 0, 0, 0, 0, 0, 0, 0, 0, 0, 0, 0, 0, 0, 0, 0, 0, 0, 0, 0, 0, 0, 0, 0, 0, 0, 0, 0, 0, 0, 0, 0, 0, 0, 0, 0}, wuser:0, wlast:0, bid:0, bresp:0, buser:0, bvalid:0, tx_type:0, wait_count_write_address_channel:0, wait_count_write_data_channel:0, wait_count_write_response_channel:0, outstanding_write_tx:0, no_of_wait_states:0}
# UVM_INFO ../../src/dv/hdl_top/axi4_master_agent_bfm/axi4_master_driver_bfm.sv(118) @ 70: reporter [AXI4_MASTER_DRIVER_BFM] cfg_packet=
# '{min_address:0, max_address:0, wait_count_write_address_channel:0, wait_count_write_data_channel:0, wait_count_write_response_channel:0, wait_count_read_address_channel:0, wait_count_read_data_channel:0, outstanding_write_tx:0, outstanding_read_tx:0}
# UVM_INFO ../../src/dv/hdl_top/axi4_master_agent_bfm/axi4_master_driver_bfm.sv(119) @ 70: reporter [AXI4_MASTER_DRIVER_BFM] DRIVING_WRITE_ADDRESS_CHANNEL
# UVM_INFO ../../src/dv/hdl_top/axi4_master_agent_bfm/axi4_master_driver_bfm.sv(134) @ 70: reporter [AXI4_MASTER_DRIVER_BFM] detect_awready = 1
# UVM_INFO ../../src/dv/hdl_top/axi4_master_agent_bfm/axi4_master_driver_bfm.sv(142) @ 90: reporter [AXI4_MASTER_DRIVER_BFM] After_loop_of_Detecting_awready = 1, awvalid = 1
# UVM_INFO ../../src/dv/hdl_top/axi4_master_agent_bfm/axi4_master_driver_bfm.sv(153) @ 90: reporter [AXI4_MASTER_DRIVER_BFM] data_write_packet=
# '{awid:0, awaddr:437264388, awlen:0, awsize:2, awburst:1, awlock:0, awcache:0, awqos:0, awregion:0, awuser:0, awprot:0, awvalid:0, awready:0, wdata:'{0, 0, 0, 0, 0, 0, 0, 0, 0, 0, 0, 0, 0, 0, 0, 0, 0, 0, 0, 0, 0, 0, 0, 0, 0, 0, 0, 0, 0, 0, 0, 0, 0, 0, 0, 0, 0, 0, 0, 0, 0, 0, 0, 0, 0, 0, 0, 0, 0, 0, 0, 0, 0, 0, 0, 0, 0, 0, 0, 0, 0, 0, 0, 0, 0, 0, 0, 0, 0, 0, 0, 0, 0, 0, 0, 0, 0, 0, 0, 0, 0, 0, 0, 0, 0, 0, 0, 0, 0, 0, 0, 0, 0, 0, 0, 0, 0, 0, 0, 0, 0, 0, 0, 0, 0, 0, 0, 0, 0, 0, 0, 0, 0, 0, 0, 0, 0, 0, 0, 0, 0, 0, 0, 0, 0, 0, 0, 0, 0, 0, 0, 0, 0, 0, 0, 0, 0, 0, 0, 0, 0, 0, 0, 0, 0, 0, 0, 0, 0, 0, 0, 0, 0, 0, 0, 0, 0, 0, 0, 0, 0, 0, 0, 0, 0, 0, 0, 0, 0, 0, 0, 0, 0, 0, 0, 0, 0, 0, 0, 0, 0, 0, 0, 0, 0, 0, 0, 0, 0, 0, 0, 0, 0, 0, 0, 0, 0, 0, 0, 0, 0, 0, 0, 0, 0, 0, 0, 0, 0, 0, 0, 0, 0, 0, 0, 0, 0, 0, 0, 0, 0, 0, 0, 0, 0, 0, 0, 0, 0, 0, 0, 0, 0, 0, 0, 0, 0, 0, 0, 0, 0, 0, 0, 0, 0, 0, 0, 0, 0, 0, 0, 0, 0, 0, 0, 0, 1}, wstrb:'{0, 0, 0, 0, 0, 0, 0, 0, 0, 0, 0, 0, 0, 0, 0, 0, 0, 0, 0, 0, 0, 0, 0, 0, 0, 0, 0, 0, 0, 0, 0, 0, 0, 0, 0, 0, 0, 0, 0, 0, 0, 0, 0, 0, 0, 0, 0, 0, 0, 0, 0, 0, 0, 0, 0, 0, 0, 0, 0, 0, 0, 0, 0, 0, 0, 0, 0, 0, 0, 0, 0, 0, 0, 0, 0, 0, 0, 0, 0, 0, 0, 0, 0, 0, 0, 0, 0, 0, 0, 0, 0, 0, 0, 0, 0, 0, 0, 0, 0, 0, 0, 0, 0, 0, 0, 0, 0, 0, 0, 0, 0, 0, 0, 0, 0, 0, 0, 0, 0, 0, 0, 0, 0, 0, 0, 0, 0, 0, 0, 0, 0, 0, 0, 0, 0, 0, 0, 0, 0, 0, 0, 0, 0, 0, 0, 0, 0, 0, 0, 0, 0, 0, 0, 0, 0, 0, 0, 0, 0, 0, 0, 0, 0, 0, 0, 0, 0, 0, 0, 0, 0, 0, 0, 0, 0, 0, 0, 0, 0, 0, 0, 0, 0, 0, 0, 0, 0, 0, 0, 0, 0, 0, 0, 0, 0, 0, 0, 0, 0, 0, 0, 0, 0, 0, 0, 0, 0, 0, 0, 0, 0, 0, 0, 0, 0, 0, 0, 0, 0, 0, 0, 0, 0, 0, 0, 0, 0, 0, 0, 0, 0, 0, 0, 0, 0, 0, 0, 0, 0, 0, 0, 0, 0, 0, 0, 0, 0, 0, 0, 0, 0, 0, 0, 0, 0, 0, 0}, wuser:0, wlast:0, bid:0, bresp:0, buser:0, bvalid:0, tx_type:0, wait_count_write_address_channel:1, wait_count_write_data_channel:0, wait_count_write_response_channel:0, outstanding_write_tx:0, no_of_wait_states:0}
# UVM_INFO ../../src/dv/hdl_top/axi4_master_agent_bfm/axi4_master_driver_bfm.sv(154) @ 90: reporter [AXI4_MASTER_DRIVER_BFM] cfg_packet=
# '{min_address:0, max_address:0, wait_count_write_address_channel:0, wait_count_write_data_channel:0, wait_count_write_response_channel:0, wait_count_read_address_channel:0, wait_count_read_data_channel:0, outstanding_write_tx:0, outstanding_read_tx:0}
# UVM_INFO ../../src/dv/hdl_top/axi4_master_agent_bfm/axi4_master_driver_bfm.sv(155) @ 90: reporter [AXI4_MASTER_DRIVER_BFM] DRIVE TO WRITE DATA CHANNEL
# UVM_INFO ../../src/dv/hdl_top/axi4_master_agent_bfm/axi4_master_monitor_bfm.sv(102) @ 90: reporter [FROM MASTER MON BFM] after while loop .......
# UVM_INFO ../../src/dv/hdl_top/axi4_master_agent_bfm/axi4_master_monitor_bfm.sv(112) @ 90: reporter [FROM MASTER MON BFM] datapacket ='{awid:0, awaddr:437264388, awlen:0, awsize:2, awburst:1, awlock:0, awcache:0, awqos:0, awregion:0, awuser:0, awprot:0, awvalid:0, awready:0, wdata:'{0, 0, 0, 0, 0, 0, 0, 0, 0, 0, 0, 0, 0, 0, 0, 0, 0, 0, 0, 0, 0, 0, 0, 0, 0, 0, 0, 0, 0, 0, 0, 0, 0, 0, 0, 0, 0, 0, 0, 0, 0, 0, 0, 0, 0, 0, 0, 0, 0, 0, 0, 0, 0, 0, 0, 0, 0, 0, 0, 0, 0, 0, 0, 0, 0, 0, 0, 0, 0, 0, 0, 0, 0, 0, 0, 0, 0, 0, 0, 0, 0, 0, 0, 0, 0, 0, 0, 0, 0, 0, 0, 0, 0, 0, 0, 0, 0, 0, 0, 0, 0, 0, 0, 0, 0, 0, 0, 0, 0, 0, 0, 0, 0, 0, 0, 0, 0, 0, 0, 0, 0, 0, 0, 0, 0, 0, 0, 0, 0, 0, 0, 0, 0, 0, 0, 0, 0, 0, 0, 0, 0, 0, 0, 0, 0, 0, 0, 0, 0, 0, 0, 0, 0, 0, 0, 0, 0, 0, 0, 0, 0, 0, 0, 0, 0, 0, 0, 0, 0, 0, 0, 0, 0, 0, 0, 0, 0, 0, 0, 0, 0, 0, 0, 0, 0, 0, 0, 0, 0, 0, 0, 0, 0, 0, 0, 0, 0, 0, 0, 0, 0, 0, 0, 0, 0, 0, 0, 0, 0, 0, 0, 0, 0, 0, 0, 0, 0, 0, 0, 0, 0, 0, 0, 0, 0, 0, 0, 0, 0, 0, 0, 0, 0, 0, 0, 0, 0, 0, 0, 0, 0, 0, 0, 0, 0, 0, 0, 0, 0, 0, 0, 0, 0, 0, 0, 0, 0}, wstrb:'{0, 0, 0, 0, 0, 0, 0, 0, 0, 0, 0, 0, 0, 0, 0, 0, 0, 0, 0, 0, 0, 0, 0, 0, 0, 0, 0, 0, 0, 0, 0, 0, 0, 0, 0, 0, 0, 0, 0, 0, 0, 0, 0, 0, 0, 0, 0, 0, 0, 0, 0, 0, 0, 0, 0, 0, 0, 0, 0, 0, 0, 0, 0, 0, 0, 0, 0, 0, 0, 0, 0, 0, 0, 0, 0, 0, 0, 0, 0, 0, 0, 0, 0, 0, 0, 0, 0, 0, 0, 0, 0, 0, 0, 0, 0, 0, 0, 0, 0, 0, 0, 0, 0, 0, 0, 0, 0, 0, 0, 0, 0, 0, 0, 0, 0, 0, 0, 0, 0, 0, 0, 0, 0, 0, 0, 0, 0, 0, 0, 0, 0, 0, 0, 0, 0, 0, 0, 0, 0, 0, 0, 0, 0, 0, 0, 0, 0, 0, 0, 0, 0, 0, 0, 0, 0, 0, 0, 0, 0, 0, 0, 0, 0, 0, 0, 0, 0, 0, 0, 0, 0, 0, 0, 0, 0, 0, 0, 0, 0, 0, 0, 0, 0, 0, 0, 0, 0, 0, 0, 0, 0, 0, 0, 0, 0, 0, 0, 0, 0, 0, 0, 0, 0, 0, 0, 0, 0, 0, 0, 0, 0, 0, 0, 0, 0, 0, 0, 0, 0, 0, 0, 0, 0, 0, 0, 0, 0, 0, 0, 0, 0, 0, 0, 0, 0, 0, 0, 0, 0, 0, 0, 0, 0, 0, 0, 0, 0, 0, 0, 0, 0, 0, 0, 0, 0, 0, 0}, wuser:0, wlast:0, bid:0, bresp:0, buser:0, bvalid:0, tx_type:0, wait_count_write_address_channel:0, wait_count_write_data_channel:0, wait_count_write_response_channel:0, outstanding_write_tx:0, no_of_wait_states:0}
# UVM_INFO ../../src/dv/hvl_top/axi4_master_agent//axi4_master_seq_item_converter.sv(198) @ 90: reporter [axi4_master_seq_item_conv_class] ----------------------------------------------------------------------
# UVM_INFO ../../src/dv/hvl_top/axi4_master_agent//axi4_master_seq_item_converter.sv(204) @ 90: reporter [axi4_master_seq_item_conv_class] After converting awid =  0000000000000000
# UVM_INFO ../../src/dv/hvl_top/axi4_master_agent//axi4_master_seq_item_converter.sv(207) @ 90: reporter [axi4_master_seq_item_conv_class] After converting awlen =  00000000
# UVM_INFO ../../src/dv/hvl_top/axi4_master_agent//axi4_master_seq_item_converter.sv(210) @ 90: reporter [axi4_master_seq_item_conv_class] After randomizing awsize =  010
# UVM_INFO ../../src/dv/hvl_top/axi4_master_agent//axi4_master_seq_item_converter.sv(213) @ 90: reporter [axi4_master_seq_item_conv_class] After converting awburst =  01
# UVM_INFO ../../src/dv/hvl_top/axi4_master_agent//axi4_master_seq_item_converter.sv(216) @ 90: reporter [axi4_master_seq_item_conv_class] After converting awlock =  0
# UVM_INFO ../../src/dv/hvl_top/axi4_master_agent//axi4_master_seq_item_converter.sv(219) @ 90: reporter [axi4_master_seq_item_conv_class] After randomizing awcache =  0000
# UVM_INFO ../../src/dv/hvl_top/axi4_master_agent//axi4_master_seq_item_converter.sv(222) @ 90: reporter [axi4_master_seq_item_conv_class] After randomizing awprot =  000
# UVM_INFO ../../src/dv/hvl_top/axi4_master_agent//axi4_master_seq_item_converter.sv(225) @ 90: reporter [axi4_master_seq_item_conv_class] After converting awaddr =  1a102004
# UVM_INFO ../../src/dv/hvl_top/axi4_master_agent//axi4_master_seq_item_converter.sv(228) @ 90: reporter [axi4_master_seq_item_conv_class] After converting awqos =  0
# UVM_INFO ../../src/dv/hvl_top/axi4_master_agent//axi4_master_seq_item_converter.sv(231) @ 90: reporter [axi4_master_seq_item_conv_class] After converting wait_count_write_address_channel =  0
# UVM_INFO ../../src/dv/hvl_top/axi4_master_agent//axi4_master_seq_item_converter.sv(248) @ 90: reporter [axi4_master_seq_item_conv_class] After converting wlast =  0
# UVM_INFO ../../src/dv/hvl_top/axi4_master_agent//axi4_master_seq_item_converter.sv(251) @ 90: reporter [axi4_master_seq_item_conv_class] After converting wuser =  0
# UVM_INFO ../../src/dv/hvl_top/axi4_master_agent//axi4_master_seq_item_converter.sv(254) @ 90: reporter [axi4_master_seq_item_conv_class] After converting wait_count_write_data_channel =  0
# UVM_INFO ../../src/dv/hvl_top/axi4_master_agent//axi4_master_seq_item_converter.sv(257) @ 90: reporter [axi4_master_seq_item_conv_class] After converting bid =  0000000000000000
# UVM_INFO ../../src/dv/hvl_top/axi4_master_agent//axi4_master_seq_item_converter.sv(260) @ 90: reporter [axi4_master_seq_item_conv_class] After converting bresp =  00
# UVM_INFO ../../src/dv/hvl_top/axi4_master_agent//axi4_master_seq_item_converter.sv(263) @ 90: reporter [axi4_master_seq_item_conv_class] After converting wait_count_write_response_channel = 0
# UVM_INFO ../../src/dv/hvl_top/axi4_master_agent//axi4_master_monitor_proxy.sv(159) @ 90: uvm_test_top.pulpino_spi_master_subsystem_env.axi4_master_agent.axi4_master_mon_proxy_h [axi4_master_monitor_proxy] Packet received from axi4_write_address clone packet is 
#  -----------------------------------------------------------------------------------
# Name                                 Type            Size  Value                   
# -----------------------------------------------------------------------------------
# axi4_master_tx                       axi4_master_tx  -     @2392                   
#   tx_type                            string          5     WRITE                   
#   awid                               string          6     AWID_0                  
#   awaddr                             integral        32    'h1a102004              
#   awlen                              integral        8     'd0                     
#   awsize                             string          13    WRITE_4_BYTES           
#   awburst                            string          10    WRITE_INCR              
#   awlock                             string          19    WRITE_NORMAL_ACCESS     
#   awcache                            string          16    WRITE_BUFFERABLE        
#   awprot                             string          24    WRITE_NORMAL_SECURE_DATA
#   awqos                              integral        4     'h0                     
#   wait_count_write_address_channel   integral        32    'h0                     
#   wait_count_write_data_channel      integral        32    'h0                     
#   bid                                string          5     BID_0                   
#   bresp                              string          10    WRITE_OKAY              
#   no_of_wait_states                  integral        32    'd0                     
#   wait_count_write_response_channel  integral        32    'h0                     
#   transfer_type                      string          14    BLOCKING_WRITE          
# -----------------------------------------------------------------------------------
# 
# UVM_INFO ../../src/dv/hvl_top/axi4_master_agent//axi4_master_coverage.sv(223) @ 90: uvm_test_top.pulpino_spi_master_subsystem_env.axi4_master_agent.axi4_master_cov_h [axi4_master_coverage] Before calling SAMPLE METHOD
# UVM_INFO ../../src/dv/hvl_top/axi4_master_agent//axi4_master_coverage.sv(227) @ 90: uvm_test_top.pulpino_spi_master_subsystem_env.axi4_master_agent.axi4_master_cov_h [axi4_master_coverage] After calling SAMPLE METHOD
# UVM_INFO ../../src/dv/hvl_top/env//axi4_master_collector.sv(60) @ 90: uvm_test_top.pulpino_spi_master_subsystem_env.axi4_master_coll_h [axi4_master_collector] Req print = -----------------------------------------------------------------------------------
# Name                                 Type            Size  Value                   
# -----------------------------------------------------------------------------------
# axi4_master_tx                       axi4_master_tx  -     @2392                   
#   tx_type                            string          5     WRITE                   
#   awid                               string          6     AWID_0                  
#   awaddr                             integral        32    'h1a102004              
#   awlen                              integral        8     'd0                     
#   awsize                             string          13    WRITE_4_BYTES           
#   awburst                            string          10    WRITE_INCR              
#   awlock                             string          19    WRITE_NORMAL_ACCESS     
#   awcache                            string          16    WRITE_BUFFERABLE        
#   awprot                             string          24    WRITE_NORMAL_SECURE_DATA
#   awqos                              integral        4     'h0                     
#   wait_count_write_address_channel   integral        32    'h0                     
#   wait_count_write_data_channel      integral        32    'h0                     
#   bid                                string          5     BID_0                   
#   bresp                              string          10    WRITE_OKAY              
#   no_of_wait_states                  integral        32    'd0                     
#   wait_count_write_response_channel  integral        32    'h0                     
#   transfer_type                      string          14    BLOCKING_WRITE          
# -----------------------------------------------------------------------------------
# 
# UVM_INFO ../../src/dv/hvl_top/env//axi4_master_collector.sv(64) @ 90: uvm_test_top.pulpino_spi_master_subsystem_env.axi4_master_coll_h [axi4_master_collector] rg_name = CLKDIV
# UVM_INFO ../../src/dv/hvl_top/env//axi4_master_collector.sv(65) @ 90: uvm_test_top.pulpino_spi_master_subsystem_env.axi4_master_coll_h [axi4_master_collector] rg_address = 1a102004
# UVM_INFO ../../src/dv/hvl_top/env//axi4_master_collector.sv(66) @ 90: uvm_test_top.pulpino_spi_master_subsystem_env.axi4_master_coll_h [axi4_master_collector] rg_data = 1
# UVM_INFO ../../src/dv/hvl_top/env//axi4_master_collector.sv(67) @ 90: uvm_test_top.pulpino_spi_master_subsystem_env.axi4_master_coll_h [axi4_master_collector] map_name = spi_master_reg_block.SPI_MASTER_MAP_ABP_IF
# UVM_INFO ../../src/dv/hvl_top/axi4_master_agent//axi4_master_adapter.sv(118) @ 90: reporter [axi4_master_adapter] The converted bus2reg packet is -----------------------------------------------------------------------------------
# Name                                 Type            Size  Value                   
# -----------------------------------------------------------------------------------
# axi4_master_tx                       axi4_master_tx  -     @2392                   
#   tx_type                            string          5     WRITE                   
#   awid                               string          6     AWID_0                  
#   awaddr                             integral        32    'h1a102004              
#   awlen                              integral        8     'd0                     
#   awsize                             string          13    WRITE_4_BYTES           
#   awburst                            string          10    WRITE_INCR              
#   awlock                             string          19    WRITE_NORMAL_ACCESS     
#   awcache                            string          16    WRITE_BUFFERABLE        
#   awprot                             string          24    WRITE_NORMAL_SECURE_DATA
#   awqos                              integral        4     'h0                     
#   wait_count_write_address_channel   integral        32    'h0                     
#   wait_count_write_data_channel      integral        32    'h0                     
#   bid                                string          5     BID_0                   
#   bresp                              string          10    WRITE_OKAY              
#   no_of_wait_states                  integral        32    'd0                     
#   wait_count_write_response_channel  integral        32    'h0                     
#   transfer_type                      string          14    BLOCKING_WRITE          
# -----------------------------------------------------------------------------------
# 
# 
# UVM_INFO verilog_src/uvm-1.1d/src/reg/uvm_reg_predictor.svh(221) @ 90: uvm_test_top.pulpino_spi_master_subsystem_env.axi4_reg_predictor_h [REG_PREDICT] Observed WRITE transaction to register spi_master_reg_block.CLKDIV: value='h0 : updated value = 'h0
# UVM_INFO ../../src/dv/hvl_top/axi4_master_agent//axi4_master_adapter.sv(118) @ 90: reporter [axi4_master_adapter] The converted bus2reg packet is -----------------------------------------------------------------------------------
# Name                                 Type            Size  Value                   
# -----------------------------------------------------------------------------------
# axi4_master_tx                       axi4_master_tx  -     @2392                   
#   tx_type                            string          5     WRITE                   
#   awid                               string          6     AWID_0                  
#   awaddr                             integral        32    'h1a102004              
#   awlen                              integral        8     'd0                     
#   awsize                             string          13    WRITE_4_BYTES           
#   awburst                            string          10    WRITE_INCR              
#   awlock                             string          19    WRITE_NORMAL_ACCESS     
#   awcache                            string          16    WRITE_BUFFERABLE        
#   awprot                             string          24    WRITE_NORMAL_SECURE_DATA
#   awqos                              integral        4     'h0                     
#   wait_count_write_address_channel   integral        32    'h0                     
#   wait_count_write_data_channel      integral        32    'h0                     
#   bid                                string          5     BID_0                   
#   bresp                              string          10    WRITE_OKAY              
#   no_of_wait_states                  integral        32    'd0                     
#   wait_count_write_response_channel  integral        32    'h0                     
#   transfer_type                      string          14    BLOCKING_WRITE          
# -----------------------------------------------------------------------------------
# 
# 
# UVM_INFO ../../src/dv/hvl_top/env//axi4_reg_predictor.sv(48) @ 90: uvm_test_top.pulpino_spi_master_subsystem_env.axi4_reg_predictor_h [axi4_reg_predictor] rg_data = {CLKDIV} 533 1 2400 @uvm_status_container@1 1 @spi_master_apb_if@1 null 32 8 { {@uvm_reg_map@1:1} } {@uvm_reg_field@10} 4 4 @semaphore@3 @18350080 {} 0 0 1 0 1 0 null @uvm_object_string_pool__3@2 32 1 @uvm_reg_field@9 @uvm_reg_field@10 {ref to covergroup #cg_vals#} {spi_master_apb_if__clkdiv}
# UVM_INFO ../../src/dv/hvl_top/env//axi4_reg_predictor.sv(49) @ 90: uvm_test_top.pulpino_spi_master_subsystem_env.axi4_reg_predictor_h [axi4_reg_predictor] rw_data = UVM_WRITE 437264388 0 0 0 UVM_IS_OK
# UVM_INFO ../../src/dv/hdl_top/axi4_master_agent_bfm/axi4_master_driver_bfm.sv(165) @ 110: reporter [AXI4_MASTER_DRIVER_BFM] DETECT_WRITE_DATA_WAIT_STATE
# UVM_INFO ../../src/dv/hdl_top/axi4_master_agent_bfm/axi4_master_driver_bfm.sv(176) @ 130: reporter [AXI4_MASTER_DRIVER_BFM] DEBUG_NA:WDATA[0]=1
# UVM_INFO ../../src/dv/hdl_top/axi4_master_agent_bfm/axi4_master_driver_bfm.sv(181) @ 130: reporter [AXI4_MASTER_DRIVER_BFM] WRITE_DATA_COMP data_write_packet=
# '{awid:0, awaddr:437264388, awlen:0, awsize:2, awburst:1, awlock:0, awcache:0, awqos:0, awregion:0, awuser:0, awprot:0, awvalid:0, awready:0, wdata:'{0, 0, 0, 0, 0, 0, 0, 0, 0, 0, 0, 0, 0, 0, 0, 0, 0, 0, 0, 0, 0, 0, 0, 0, 0, 0, 0, 0, 0, 0, 0, 0, 0, 0, 0, 0, 0, 0, 0, 0, 0, 0, 0, 0, 0, 0, 0, 0, 0, 0, 0, 0, 0, 0, 0, 0, 0, 0, 0, 0, 0, 0, 0, 0, 0, 0, 0, 0, 0, 0, 0, 0, 0, 0, 0, 0, 0, 0, 0, 0, 0, 0, 0, 0, 0, 0, 0, 0, 0, 0, 0, 0, 0, 0, 0, 0, 0, 0, 0, 0, 0, 0, 0, 0, 0, 0, 0, 0, 0, 0, 0, 0, 0, 0, 0, 0, 0, 0, 0, 0, 0, 0, 0, 0, 0, 0, 0, 0, 0, 0, 0, 0, 0, 0, 0, 0, 0, 0, 0, 0, 0, 0, 0, 0, 0, 0, 0, 0, 0, 0, 0, 0, 0, 0, 0, 0, 0, 0, 0, 0, 0, 0, 0, 0, 0, 0, 0, 0, 0, 0, 0, 0, 0, 0, 0, 0, 0, 0, 0, 0, 0, 0, 0, 0, 0, 0, 0, 0, 0, 0, 0, 0, 0, 0, 0, 0, 0, 0, 0, 0, 0, 0, 0, 0, 0, 0, 0, 0, 0, 0, 0, 0, 0, 0, 0, 0, 0, 0, 0, 0, 0, 0, 0, 0, 0, 0, 0, 0, 0, 0, 0, 0, 0, 0, 0, 0, 0, 0, 0, 0, 0, 0, 0, 0, 0, 0, 0, 0, 0, 0, 0, 0, 0, 0, 0, 0, 1}, wstrb:'{0, 0, 0, 0, 0, 0, 0, 0, 0, 0, 0, 0, 0, 0, 0, 0, 0, 0, 0, 0, 0, 0, 0, 0, 0, 0, 0, 0, 0, 0, 0, 0, 0, 0, 0, 0, 0, 0, 0, 0, 0, 0, 0, 0, 0, 0, 0, 0, 0, 0, 0, 0, 0, 0, 0, 0, 0, 0, 0, 0, 0, 0, 0, 0, 0, 0, 0, 0, 0, 0, 0, 0, 0, 0, 0, 0, 0, 0, 0, 0, 0, 0, 0, 0, 0, 0, 0, 0, 0, 0, 0, 0, 0, 0, 0, 0, 0, 0, 0, 0, 0, 0, 0, 0, 0, 0, 0, 0, 0, 0, 0, 0, 0, 0, 0, 0, 0, 0, 0, 0, 0, 0, 0, 0, 0, 0, 0, 0, 0, 0, 0, 0, 0, 0, 0, 0, 0, 0, 0, 0, 0, 0, 0, 0, 0, 0, 0, 0, 0, 0, 0, 0, 0, 0, 0, 0, 0, 0, 0, 0, 0, 0, 0, 0, 0, 0, 0, 0, 0, 0, 0, 0, 0, 0, 0, 0, 0, 0, 0, 0, 0, 0, 0, 0, 0, 0, 0, 0, 0, 0, 0, 0, 0, 0, 0, 0, 0, 0, 0, 0, 0, 0, 0, 0, 0, 0, 0, 0, 0, 0, 0, 0, 0, 0, 0, 0, 0, 0, 0, 0, 0, 0, 0, 0, 0, 0, 0, 0, 0, 0, 0, 0, 0, 0, 0, 0, 0, 0, 0, 0, 0, 0, 0, 0, 0, 0, 0, 0, 0, 0, 0, 0, 0, 0, 0, 0, 0}, wuser:0, wlast:0, bid:0, bresp:0, buser:0, bvalid:0, tx_type:0, wait_count_write_address_channel:1, wait_count_write_data_channel:0, wait_count_write_response_channel:0, outstanding_write_tx:0, no_of_wait_states:0}
# UVM_INFO ../../src/dv/hdl_top/axi4_master_agent_bfm/axi4_master_driver_bfm.sv(190) @ 130: reporter [AXI4_MASTER_DRIVER_BFM] WRITE_RESP data_write_packet=
# '{awid:0, awaddr:437264388, awlen:0, awsize:2, awburst:1, awlock:0, awcache:0, awqos:0, awregion:0, awuser:0, awprot:0, awvalid:0, awready:0, wdata:'{0, 0, 0, 0, 0, 0, 0, 0, 0, 0, 0, 0, 0, 0, 0, 0, 0, 0, 0, 0, 0, 0, 0, 0, 0, 0, 0, 0, 0, 0, 0, 0, 0, 0, 0, 0, 0, 0, 0, 0, 0, 0, 0, 0, 0, 0, 0, 0, 0, 0, 0, 0, 0, 0, 0, 0, 0, 0, 0, 0, 0, 0, 0, 0, 0, 0, 0, 0, 0, 0, 0, 0, 0, 0, 0, 0, 0, 0, 0, 0, 0, 0, 0, 0, 0, 0, 0, 0, 0, 0, 0, 0, 0, 0, 0, 0, 0, 0, 0, 0, 0, 0, 0, 0, 0, 0, 0, 0, 0, 0, 0, 0, 0, 0, 0, 0, 0, 0, 0, 0, 0, 0, 0, 0, 0, 0, 0, 0, 0, 0, 0, 0, 0, 0, 0, 0, 0, 0, 0, 0, 0, 0, 0, 0, 0, 0, 0, 0, 0, 0, 0, 0, 0, 0, 0, 0, 0, 0, 0, 0, 0, 0, 0, 0, 0, 0, 0, 0, 0, 0, 0, 0, 0, 0, 0, 0, 0, 0, 0, 0, 0, 0, 0, 0, 0, 0, 0, 0, 0, 0, 0, 0, 0, 0, 0, 0, 0, 0, 0, 0, 0, 0, 0, 0, 0, 0, 0, 0, 0, 0, 0, 0, 0, 0, 0, 0, 0, 0, 0, 0, 0, 0, 0, 0, 0, 0, 0, 0, 0, 0, 0, 0, 0, 0, 0, 0, 0, 0, 0, 0, 0, 0, 0, 0, 0, 0, 0, 0, 0, 0, 0, 0, 0, 0, 0, 0, 1}, wstrb:'{0, 0, 0, 0, 0, 0, 0, 0, 0, 0, 0, 0, 0, 0, 0, 0, 0, 0, 0, 0, 0, 0, 0, 0, 0, 0, 0, 0, 0, 0, 0, 0, 0, 0, 0, 0, 0, 0, 0, 0, 0, 0, 0, 0, 0, 0, 0, 0, 0, 0, 0, 0, 0, 0, 0, 0, 0, 0, 0, 0, 0, 0, 0, 0, 0, 0, 0, 0, 0, 0, 0, 0, 0, 0, 0, 0, 0, 0, 0, 0, 0, 0, 0, 0, 0, 0, 0, 0, 0, 0, 0, 0, 0, 0, 0, 0, 0, 0, 0, 0, 0, 0, 0, 0, 0, 0, 0, 0, 0, 0, 0, 0, 0, 0, 0, 0, 0, 0, 0, 0, 0, 0, 0, 0, 0, 0, 0, 0, 0, 0, 0, 0, 0, 0, 0, 0, 0, 0, 0, 0, 0, 0, 0, 0, 0, 0, 0, 0, 0, 0, 0, 0, 0, 0, 0, 0, 0, 0, 0, 0, 0, 0, 0, 0, 0, 0, 0, 0, 0, 0, 0, 0, 0, 0, 0, 0, 0, 0, 0, 0, 0, 0, 0, 0, 0, 0, 0, 0, 0, 0, 0, 0, 0, 0, 0, 0, 0, 0, 0, 0, 0, 0, 0, 0, 0, 0, 0, 0, 0, 0, 0, 0, 0, 0, 0, 0, 0, 0, 0, 0, 0, 0, 0, 0, 0, 0, 0, 0, 0, 0, 0, 0, 0, 0, 0, 0, 0, 0, 0, 0, 0, 0, 0, 0, 0, 0, 0, 0, 0, 0, 0, 0, 0, 0, 0, 0, 0}, wuser:0, wlast:0, bid:0, bresp:0, buser:0, bvalid:0, tx_type:0, wait_count_write_address_channel:1, wait_count_write_data_channel:0, wait_count_write_response_channel:0, outstanding_write_tx:0, no_of_wait_states:0}
# UVM_INFO ../../src/dv/hdl_top/axi4_master_agent_bfm/axi4_master_driver_bfm.sv(191) @ 130: reporter [AXI4_MASTER_DRIVER_BFM] cfg_packet=
# '{min_address:0, max_address:0, wait_count_write_address_channel:0, wait_count_write_data_channel:0, wait_count_write_response_channel:0, wait_count_read_address_channel:0, wait_count_read_data_channel:0, outstanding_write_tx:0, outstanding_read_tx:0}
# UVM_INFO ../../src/dv/hdl_top/axi4_master_agent_bfm/axi4_master_driver_bfm.sv(192) @ 130: reporter [AXI4_MASTER_DRIVER_BFM] DRIVE TO WRITE RESPONSE CHANNEL
# UVM_INFO ../../src/dv/hdl_top/axi4_master_agent_bfm/axi4_master_monitor_bfm.sv(128) @ 130: reporter [FROM MASTER MON BFM] After while loop write data......
# UVM_INFO ../../src/dv/hdl_top/axi4_master_agent_bfm/axi4_master_monitor_bfm.sv(135) @ 130: reporter [FROM MASTER MON BFM write data] write datapacket wdata[0] = 'h1
# UVM_INFO ../../src/dv/hdl_top/axi4_master_agent_bfm/axi4_master_monitor_bfm.sv(136) @ 130: reporter [FROM MASTER MON BFM write data] write datapacket wstrb[0] = 'h0
# UVM_INFO ../../src/dv/hdl_top/axi4_master_agent_bfm/axi4_master_monitor_bfm.sv(138) @ 130: reporter [FROM MASTER MON BFM write data] Inside wlast write datapacket  ='{awid:0, awaddr:0, awlen:0, awsize:0, awburst:0, awlock:0, awcache:0, awqos:0, awregion:0, awuser:0, awprot:0, awvalid:0, awready:0, wdata:'{0, 0, 0, 0, 0, 0, 0, 0, 0, 0, 0, 0, 0, 0, 0, 0, 0, 0, 0, 0, 0, 0, 0, 0, 0, 0, 0, 0, 0, 0, 0, 0, 0, 0, 0, 0, 0, 0, 0, 0, 0, 0, 0, 0, 0, 0, 0, 0, 0, 0, 0, 0, 0, 0, 0, 0, 0, 0, 0, 0, 0, 0, 0, 0, 0, 0, 0, 0, 0, 0, 0, 0, 0, 0, 0, 0, 0, 0, 0, 0, 0, 0, 0, 0, 0, 0, 0, 0, 0, 0, 0, 0, 0, 0, 0, 0, 0, 0, 0, 0, 0, 0, 0, 0, 0, 0, 0, 0, 0, 0, 0, 0, 0, 0, 0, 0, 0, 0, 0, 0, 0, 0, 0, 0, 0, 0, 0, 0, 0, 0, 0, 0, 0, 0, 0, 0, 0, 0, 0, 0, 0, 0, 0, 0, 0, 0, 0, 0, 0, 0, 0, 0, 0, 0, 0, 0, 0, 0, 0, 0, 0, 0, 0, 0, 0, 0, 0, 0, 0, 0, 0, 0, 0, 0, 0, 0, 0, 0, 0, 0, 0, 0, 0, 0, 0, 0, 0, 0, 0, 0, 0, 0, 0, 0, 0, 0, 0, 0, 0, 0, 0, 0, 0, 0, 0, 0, 0, 0, 0, 0, 0, 0, 0, 0, 0, 0, 0, 0, 0, 0, 0, 0, 0, 0, 0, 0, 0, 0, 0, 0, 0, 0, 0, 0, 0, 0, 0, 0, 0, 0, 0, 0, 0, 0, 0, 0, 0, 0, 0, 0, 0, 0, 0, 0, 0, 0, 1}, wstrb:'{0, 0, 0, 0, 0, 0, 0, 0, 0, 0, 0, 0, 0, 0, 0, 0, 0, 0, 0, 0, 0, 0, 0, 0, 0, 0, 0, 0, 0, 0, 0, 0, 0, 0, 0, 0, 0, 0, 0, 0, 0, 0, 0, 0, 0, 0, 0, 0, 0, 0, 0, 0, 0, 0, 0, 0, 0, 0, 0, 0, 0, 0, 0, 0, 0, 0, 0, 0, 0, 0, 0, 0, 0, 0, 0, 0, 0, 0, 0, 0, 0, 0, 0, 0, 0, 0, 0, 0, 0, 0, 0, 0, 0, 0, 0, 0, 0, 0, 0, 0, 0, 0, 0, 0, 0, 0, 0, 0, 0, 0, 0, 0, 0, 0, 0, 0, 0, 0, 0, 0, 0, 0, 0, 0, 0, 0, 0, 0, 0, 0, 0, 0, 0, 0, 0, 0, 0, 0, 0, 0, 0, 0, 0, 0, 0, 0, 0, 0, 0, 0, 0, 0, 0, 0, 0, 0, 0, 0, 0, 0, 0, 0, 0, 0, 0, 0, 0, 0, 0, 0, 0, 0, 0, 0, 0, 0, 0, 0, 0, 0, 0, 0, 0, 0, 0, 0, 0, 0, 0, 0, 0, 0, 0, 0, 0, 0, 0, 0, 0, 0, 0, 0, 0, 0, 0, 0, 0, 0, 0, 0, 0, 0, 0, 0, 0, 0, 0, 0, 0, 0, 0, 0, 0, 0, 0, 0, 0, 0, 0, 0, 0, 0, 0, 0, 0, 0, 0, 0, 0, 0, 0, 0, 0, 0, 0, 0, 0, 0, 0, 0, 0, 0, 0, 0, 0, 0, 0}, wuser:0, wlast:1, bid:0, bresp:0, buser:0, bvalid:0, tx_type:0, wait_count_write_address_channel:0, wait_count_write_data_channel:0, wait_count_write_response_channel:0, outstanding_write_tx:0, no_of_wait_states:0}
# UVM_INFO ../../src/dv/hvl_top/axi4_master_agent//axi4_master_monitor_proxy.sv(182) @ 130: uvm_test_top.pulpino_spi_master_subsystem_env.axi4_master_agent.axi4_master_mon_proxy_h [axi4_master_monitor_proxy] ADDR_Packet received from fifo is 
#  -----------------------------------------------------------------------------------
# Name                                 Type            Size  Value                   
# -----------------------------------------------------------------------------------
# axi4_master_tx                       axi4_master_tx  -     @2388                   
#   tx_type                            string          5     WRITE                   
#   awid                               string          6     AWID_0                  
#   awaddr                             integral        32    'h1a102004              
#   awlen                              integral        8     'd0                     
#   awsize                             string          13    WRITE_4_BYTES           
#   awburst                            string          10    WRITE_INCR              
#   awlock                             string          19    WRITE_NORMAL_ACCESS     
#   awcache                            string          16    WRITE_BUFFERABLE        
#   awprot                             string          24    WRITE_NORMAL_SECURE_DATA
#   awqos                              integral        4     'h0                     
#   wait_count_write_address_channel   integral        32    'h0                     
#   wait_count_write_data_channel      integral        32    'h0                     
#   bid                                string          5     BID_0                   
#   bresp                              string          10    WRITE_OKAY              
#   no_of_wait_states                  integral        32    'd0                     
#   wait_count_write_response_channel  integral        32    'h0                     
#   transfer_type                      string          14    BLOCKING_WRITE          
# -----------------------------------------------------------------------------------
# 
# UVM_INFO ../../src/dv/hvl_top/axi4_master_agent//axi4_master_seq_item_converter.sv(337) @ 130: reporter [axi4_master_seq_item_conv_class] ----------------------------------------------------------------------
# UVM_INFO ../../src/dv/hvl_top/axi4_master_agent//axi4_master_seq_item_converter.sv(355) @ 130: reporter [axi4_master_seq_item_conv_class] After converting wdata[0] =  1
# UVM_INFO ../../src/dv/hvl_top/axi4_master_agent//axi4_master_seq_item_converter.sv(362) @ 130: reporter [axi4_master_seq_item_conv_class] After converting wstrb[0] =  0
# UVM_INFO ../../src/dv/hvl_top/axi4_master_agent//axi4_master_seq_item_converter.sv(370) @ 130: reporter [axi4_master_seq_item_conv_class] After converting =  -----------------------------------------------------------------------------------
# Name                                 Type            Size  Value                   
# -----------------------------------------------------------------------------------
# axi4_master_tx                       axi4_master_tx  -     @2400                   
#   tx_type                            string          5     WRITE                   
#   awid                               string          6     AWID_0                  
#   awaddr                             integral        32    'h1a102004              
#   awlen                              integral        8     'd0                     
#   awsize                             string          13    WRITE_4_BYTES           
#   awburst                            string          10    WRITE_INCR              
#   awlock                             string          19    WRITE_NORMAL_ACCESS     
#   awcache                            string          16    WRITE_BUFFERABLE        
#   awprot                             string          24    WRITE_NORMAL_SECURE_DATA
#   awqos                              integral        4     'h0                     
#   wait_count_write_address_channel   integral        32    'h0                     
#   wdata[0]                           integral        64    'h1                     
#   wstrb[0]                           integral        8     'h0                     
#   wait_count_write_data_channel      integral        32    'h0                     
#   bid                                string          5     BID_0                   
#   bresp                              string          10    WRITE_OKAY              
#   no_of_wait_states                  integral        32    'd0                     
#   wait_count_write_response_channel  integral        32    'h0                     
#   transfer_type                      string          14    BLOCKING_WRITE          
# -----------------------------------------------------------------------------------
# 
# UVM_INFO ../../src/dv/hvl_top/axi4_master_agent//axi4_master_monitor_proxy.sv(191) @ 130: uvm_test_top.pulpino_spi_master_subsystem_env.axi4_master_agent.axi4_master_mon_proxy_h [axi4_master_monitor_proxy] Packet received from axi4_write_data clone packet is 
#  -----------------------------------------------------------------------------------
# Name                                 Type            Size  Value                   
# -----------------------------------------------------------------------------------
# axi4_master_tx                       axi4_master_tx  -     @2404                   
#   tx_type                            string          5     WRITE                   
#   awid                               string          6     AWID_0                  
#   awaddr                             integral        32    'h1a102004              
#   awlen                              integral        8     'd0                     
#   awsize                             string          13    WRITE_4_BYTES           
#   awburst                            string          10    WRITE_INCR              
#   awlock                             string          19    WRITE_NORMAL_ACCESS     
#   awcache                            string          16    WRITE_BUFFERABLE        
#   awprot                             string          24    WRITE_NORMAL_SECURE_DATA
#   awqos                              integral        4     'h0                     
#   wait_count_write_address_channel   integral        32    'h0                     
#   wdata[0]                           integral        64    'h1                     
#   wstrb[0]                           integral        8     'h0                     
#   wait_count_write_data_channel      integral        32    'h0                     
#   bid                                string          5     BID_0                   
#   bresp                              string          10    WRITE_OKAY              
#   no_of_wait_states                  integral        32    'd0                     
#   wait_count_write_response_channel  integral        32    'h0                     
#   transfer_type                      string          14    BLOCKING_WRITE          
# -----------------------------------------------------------------------------------
# 
# UVM_INFO ../../src/dv/hvl_top/axi4_master_agent//axi4_master_coverage.sv(223) @ 130: uvm_test_top.pulpino_spi_master_subsystem_env.axi4_master_agent.axi4_master_cov_h [axi4_master_coverage] Before calling SAMPLE METHOD
# UVM_INFO ../../src/dv/hvl_top/axi4_master_agent//axi4_master_coverage.sv(227) @ 130: uvm_test_top.pulpino_spi_master_subsystem_env.axi4_master_agent.axi4_master_cov_h [axi4_master_coverage] After calling SAMPLE METHOD
# UVM_INFO ../../src/dv/hdl_top/axi4_master_agent_bfm/axi4_master_driver_bfm.sv(210) @ 190: reporter [AXI4_MASTER_DRIVER_BFM] CHECKING WRITE RESPONSE :: '{awid:0, awaddr:437264388, awlen:0, awsize:2, awburst:1, awlock:0, awcache:0, awqos:0, awregion:0, awuser:0, awprot:0, awvalid:0, awready:0, wdata:'{0, 0, 0, 0, 0, 0, 0, 0, 0, 0, 0, 0, 0, 0, 0, 0, 0, 0, 0, 0, 0, 0, 0, 0, 0, 0, 0, 0, 0, 0, 0, 0, 0, 0, 0, 0, 0, 0, 0, 0, 0, 0, 0, 0, 0, 0, 0, 0, 0, 0, 0, 0, 0, 0, 0, 0, 0, 0, 0, 0, 0, 0, 0, 0, 0, 0, 0, 0, 0, 0, 0, 0, 0, 0, 0, 0, 0, 0, 0, 0, 0, 0, 0, 0, 0, 0, 0, 0, 0, 0, 0, 0, 0, 0, 0, 0, 0, 0, 0, 0, 0, 0, 0, 0, 0, 0, 0, 0, 0, 0, 0, 0, 0, 0, 0, 0, 0, 0, 0, 0, 0, 0, 0, 0, 0, 0, 0, 0, 0, 0, 0, 0, 0, 0, 0, 0, 0, 0, 0, 0, 0, 0, 0, 0, 0, 0, 0, 0, 0, 0, 0, 0, 0, 0, 0, 0, 0, 0, 0, 0, 0, 0, 0, 0, 0, 0, 0, 0, 0, 0, 0, 0, 0, 0, 0, 0, 0, 0, 0, 0, 0, 0, 0, 0, 0, 0, 0, 0, 0, 0, 0, 0, 0, 0, 0, 0, 0, 0, 0, 0, 0, 0, 0, 0, 0, 0, 0, 0, 0, 0, 0, 0, 0, 0, 0, 0, 0, 0, 0, 0, 0, 0, 0, 0, 0, 0, 0, 0, 0, 0, 0, 0, 0, 0, 0, 0, 0, 0, 0, 0, 0, 0, 0, 0, 0, 0, 0, 0, 0, 0, 0, 0, 0, 0, 0, 0, 1}, wstrb:'{0, 0, 0, 0, 0, 0, 0, 0, 0, 0, 0, 0, 0, 0, 0, 0, 0, 0, 0, 0, 0, 0, 0, 0, 0, 0, 0, 0, 0, 0, 0, 0, 0, 0, 0, 0, 0, 0, 0, 0, 0, 0, 0, 0, 0, 0, 0, 0, 0, 0, 0, 0, 0, 0, 0, 0, 0, 0, 0, 0, 0, 0, 0, 0, 0, 0, 0, 0, 0, 0, 0, 0, 0, 0, 0, 0, 0, 0, 0, 0, 0, 0, 0, 0, 0, 0, 0, 0, 0, 0, 0, 0, 0, 0, 0, 0, 0, 0, 0, 0, 0, 0, 0, 0, 0, 0, 0, 0, 0, 0, 0, 0, 0, 0, 0, 0, 0, 0, 0, 0, 0, 0, 0, 0, 0, 0, 0, 0, 0, 0, 0, 0, 0, 0, 0, 0, 0, 0, 0, 0, 0, 0, 0, 0, 0, 0, 0, 0, 0, 0, 0, 0, 0, 0, 0, 0, 0, 0, 0, 0, 0, 0, 0, 0, 0, 0, 0, 0, 0, 0, 0, 0, 0, 0, 0, 0, 0, 0, 0, 0, 0, 0, 0, 0, 0, 0, 0, 0, 0, 0, 0, 0, 0, 0, 0, 0, 0, 0, 0, 0, 0, 0, 0, 0, 0, 0, 0, 0, 0, 0, 0, 0, 0, 0, 0, 0, 0, 0, 0, 0, 0, 0, 0, 0, 0, 0, 0, 0, 0, 0, 0, 0, 0, 0, 0, 0, 0, 0, 0, 0, 0, 0, 0, 0, 0, 0, 0, 0, 0, 0, 0, 0, 0, 0, 0, 0, 0}, wuser:0, wlast:0, bid:0, bresp:0, buser:0, bvalid:1, tx_type:0, wait_count_write_address_channel:1, wait_count_write_data_channel:0, wait_count_write_response_channel:0, outstanding_write_tx:0, no_of_wait_states:0}
# UVM_INFO ../../src/dv/hvl_top/axi4_master_agent//axi4_master_seq_item_converter.sv(198) @ 210: reporter [axi4_master_seq_item_conv_class] ----------------------------------------------------------------------
# UVM_INFO ../../src/dv/hvl_top/axi4_master_agent//axi4_master_seq_item_converter.sv(204) @ 210: reporter [axi4_master_seq_item_conv_class] After converting awid =  0000000000000000
# UVM_INFO ../../src/dv/hvl_top/axi4_master_agent//axi4_master_seq_item_converter.sv(207) @ 210: reporter [axi4_master_seq_item_conv_class] After converting awlen =  00000000
# UVM_INFO ../../src/dv/hvl_top/axi4_master_agent//axi4_master_seq_item_converter.sv(210) @ 210: reporter [axi4_master_seq_item_conv_class] After randomizing awsize =  010
# UVM_INFO ../../src/dv/hvl_top/axi4_master_agent//axi4_master_seq_item_converter.sv(213) @ 210: reporter [axi4_master_seq_item_conv_class] After converting awburst =  01
# UVM_INFO ../../src/dv/hvl_top/axi4_master_agent//axi4_master_seq_item_converter.sv(216) @ 210: reporter [axi4_master_seq_item_conv_class] After converting awlock =  0
# UVM_INFO ../../src/dv/hvl_top/axi4_master_agent//axi4_master_seq_item_converter.sv(219) @ 210: reporter [axi4_master_seq_item_conv_class] After randomizing awcache =  0000
# UVM_INFO ../../src/dv/hvl_top/axi4_master_agent//axi4_master_seq_item_converter.sv(222) @ 210: reporter [axi4_master_seq_item_conv_class] After randomizing awprot =  000
# UVM_INFO ../../src/dv/hvl_top/axi4_master_agent//axi4_master_seq_item_converter.sv(225) @ 210: reporter [axi4_master_seq_item_conv_class] After converting awaddr =  1a102004
# UVM_INFO ../../src/dv/hvl_top/axi4_master_agent//axi4_master_seq_item_converter.sv(228) @ 210: reporter [axi4_master_seq_item_conv_class] After converting awqos =  0
# UVM_INFO ../../src/dv/hvl_top/axi4_master_agent//axi4_master_seq_item_converter.sv(231) @ 210: reporter [axi4_master_seq_item_conv_class] After converting wait_count_write_address_channel =  1
# UVM_INFO ../../src/dv/hvl_top/axi4_master_agent//axi4_master_seq_item_converter.sv(236) @ 210: reporter [axi4_master_seq_item_conv_class] After converting wdata[0] =  1
# UVM_INFO ../../src/dv/hvl_top/axi4_master_agent//axi4_master_seq_item_converter.sv(243) @ 210: reporter [axi4_master_seq_item_conv_class] After converting wstrb[0] =  0
# UVM_INFO ../../src/dv/hvl_top/axi4_master_agent//axi4_master_seq_item_converter.sv(248) @ 210: reporter [axi4_master_seq_item_conv_class] After converting wlast =  0
# UVM_INFO ../../src/dv/hvl_top/axi4_master_agent//axi4_master_seq_item_converter.sv(251) @ 210: reporter [axi4_master_seq_item_conv_class] After converting wuser =  0
# UVM_INFO ../../src/dv/hvl_top/axi4_master_agent//axi4_master_seq_item_converter.sv(254) @ 210: reporter [axi4_master_seq_item_conv_class] After converting wait_count_write_data_channel =  0
# UVM_INFO ../../src/dv/hvl_top/axi4_master_agent//axi4_master_seq_item_converter.sv(257) @ 210: reporter [axi4_master_seq_item_conv_class] After converting bid =  0000000000000000
# UVM_INFO ../../src/dv/hvl_top/axi4_master_agent//axi4_master_seq_item_converter.sv(260) @ 210: reporter [axi4_master_seq_item_conv_class] After converting bresp =  00
# UVM_INFO ../../src/dv/hvl_top/axi4_master_agent//axi4_master_seq_item_converter.sv(263) @ 210: reporter [axi4_master_seq_item_conv_class] After converting wait_count_write_response_channel = 0
# UVM_INFO ../../src/dv/hvl_top/axi4_master_agent//axi4_master_driver_proxy.sv(202) @ 210: uvm_test_top.pulpino_spi_master_subsystem_env.axi4_master_agent.axi4_master_drv_proxy_h [axi4_master_driver_proxy] WRITE_TASK::Response Received_req_write_packet = 
#  -----------------------------------------------------------------------------------
# Name                                 Type            Size  Value                   
# -----------------------------------------------------------------------------------
# axi4_master_tx                       axi4_master_tx  -     @2408                   
#   tx_type                            string          5     WRITE                   
#   awid                               string          6     AWID_0                  
#   awaddr                             integral        32    'h1a102004              
#   awlen                              integral        8     'd0                     
#   awsize                             string          13    WRITE_4_BYTES           
#   awburst                            string          10    WRITE_INCR              
#   awlock                             string          19    WRITE_NORMAL_ACCESS     
#   awcache                            string          16    WRITE_BUFFERABLE        
#   awprot                             string          24    WRITE_NORMAL_SECURE_DATA
#   awqos                              integral        4     'h0                     
#   wait_count_write_address_channel   integral        32    'h1                     
#   wdata[0]                           integral        64    'h1                     
#   wstrb[0]                           integral        8     'h0                     
#   wait_count_write_data_channel      integral        32    'h0                     
#   bid                                string          5     BID_0                   
#   bresp                              string          10    WRITE_OKAY              
#   no_of_wait_states                  integral        32    'd0                     
#   wait_count_write_response_channel  integral        32    'h0                     
#   transfer_type                      string          14    BLOCKING_WRITE          
# -----------------------------------------------------------------------------------
# 
# UVM_INFO ../../src/dv/hdl_top/axi4_master_agent_bfm/axi4_master_monitor_bfm.sv(158) @ 210: reporter [FROM MASTER MON BFM::WRITE RESPONSE] WRITE RESPONSE PACKET: 
#  '{awid:0, awaddr:0, awlen:0, awsize:0, awburst:0, awlock:0, awcache:0, awqos:0, awregion:0, awuser:0, awprot:0, awvalid:0, awready:0, wdata:'{0, 0, 0, 0, 0, 0, 0, 0, 0, 0, 0, 0, 0, 0, 0, 0, 0, 0, 0, 0, 0, 0, 0, 0, 0, 0, 0, 0, 0, 0, 0, 0, 0, 0, 0, 0, 0, 0, 0, 0, 0, 0, 0, 0, 0, 0, 0, 0, 0, 0, 0, 0, 0, 0, 0, 0, 0, 0, 0, 0, 0, 0, 0, 0, 0, 0, 0, 0, 0, 0, 0, 0, 0, 0, 0, 0, 0, 0, 0, 0, 0, 0, 0, 0, 0, 0, 0, 0, 0, 0, 0, 0, 0, 0, 0, 0, 0, 0, 0, 0, 0, 0, 0, 0, 0, 0, 0, 0, 0, 0, 0, 0, 0, 0, 0, 0, 0, 0, 0, 0, 0, 0, 0, 0, 0, 0, 0, 0, 0, 0, 0, 0, 0, 0, 0, 0, 0, 0, 0, 0, 0, 0, 0, 0, 0, 0, 0, 0, 0, 0, 0, 0, 0, 0, 0, 0, 0, 0, 0, 0, 0, 0, 0, 0, 0, 0, 0, 0, 0, 0, 0, 0, 0, 0, 0, 0, 0, 0, 0, 0, 0, 0, 0, 0, 0, 0, 0, 0, 0, 0, 0, 0, 0, 0, 0, 0, 0, 0, 0, 0, 0, 0, 0, 0, 0, 0, 0, 0, 0, 0, 0, 0, 0, 0, 0, 0, 0, 0, 0, 0, 0, 0, 0, 0, 0, 0, 0, 0, 0, 0, 0, 0, 0, 0, 0, 0, 0, 0, 0, 0, 0, 0, 0, 0, 0, 0, 0, 0, 0, 0, 0, 0, 0, 0, 0, 0, 0}, wstrb:'{0, 0, 0, 0, 0, 0, 0, 0, 0, 0, 0, 0, 0, 0, 0, 0, 0, 0, 0, 0, 0, 0, 0, 0, 0, 0, 0, 0, 0, 0, 0, 0, 0, 0, 0, 0, 0, 0, 0, 0, 0, 0, 0, 0, 0, 0, 0, 0, 0, 0, 0, 0, 0, 0, 0, 0, 0, 0, 0, 0, 0, 0, 0, 0, 0, 0, 0, 0, 0, 0, 0, 0, 0, 0, 0, 0, 0, 0, 0, 0, 0, 0, 0, 0, 0, 0, 0, 0, 0, 0, 0, 0, 0, 0, 0, 0, 0, 0, 0, 0, 0, 0, 0, 0, 0, 0, 0, 0, 0, 0, 0, 0, 0, 0, 0, 0, 0, 0, 0, 0, 0, 0, 0, 0, 0, 0, 0, 0, 0, 0, 0, 0, 0, 0, 0, 0, 0, 0, 0, 0, 0, 0, 0, 0, 0, 0, 0, 0, 0, 0, 0, 0, 0, 0, 0, 0, 0, 0, 0, 0, 0, 0, 0, 0, 0, 0, 0, 0, 0, 0, 0, 0, 0, 0, 0, 0, 0, 0, 0, 0, 0, 0, 0, 0, 0, 0, 0, 0, 0, 0, 0, 0, 0, 0, 0, 0, 0, 0, 0, 0, 0, 0, 0, 0, 0, 0, 0, 0, 0, 0, 0, 0, 0, 0, 0, 0, 0, 0, 0, 0, 0, 0, 0, 0, 0, 0, 0, 0, 0, 0, 0, 0, 0, 0, 0, 0, 0, 0, 0, 0, 0, 0, 0, 0, 0, 0, 0, 0, 0, 0, 0, 0, 0, 0, 0, 0, 0}, wuser:0, wlast:0, bid:0, bresp:0, buser:0, bvalid:0, tx_type:0, wait_count_write_address_channel:0, wait_count_write_data_channel:0, wait_count_write_response_channel:0, outstanding_write_tx:0, no_of_wait_states:0}
# UVM_INFO ../../src/dv/hvl_top/axi4_master_agent//axi4_master_seq_item_converter.sv(198) @ 210: reporter [axi4_master_seq_item_conv_class] ----------------------------------------------------------------------
# UVM_INFO ../../src/dv/hvl_top/axi4_master_agent//axi4_master_seq_item_converter.sv(204) @ 210: reporter [axi4_master_seq_item_conv_class] After converting awid =  0000000000000000
# UVM_INFO ../../src/dv/hvl_top/axi4_master_agent//axi4_master_seq_item_converter.sv(207) @ 210: reporter [axi4_master_seq_item_conv_class] After converting awlen =  00000000
# UVM_INFO ../../src/dv/hvl_top/axi4_master_agent//axi4_master_seq_item_converter.sv(210) @ 210: reporter [axi4_master_seq_item_conv_class] After randomizing awsize =  000
# UVM_INFO ../../src/dv/hvl_top/axi4_master_agent//axi4_master_seq_item_converter.sv(213) @ 210: reporter [axi4_master_seq_item_conv_class] After converting awburst =  00
# UVM_INFO ../../src/dv/hvl_top/axi4_master_agent//axi4_master_seq_item_converter.sv(216) @ 210: reporter [axi4_master_seq_item_conv_class] After converting awlock =  0
# UVM_INFO ../../src/dv/hvl_top/axi4_master_agent//axi4_master_seq_item_converter.sv(219) @ 210: reporter [axi4_master_seq_item_conv_class] After randomizing awcache =  0000
# UVM_INFO ../../src/dv/hvl_top/axi4_master_agent//axi4_master_seq_item_converter.sv(222) @ 210: reporter [axi4_master_seq_item_conv_class] After randomizing awprot =  000
# UVM_INFO ../../src/dv/hvl_top/axi4_master_agent//axi4_master_seq_item_converter.sv(225) @ 210: reporter [axi4_master_seq_item_conv_class] After converting awaddr =  0
# UVM_INFO ../../src/dv/hvl_top/axi4_master_agent//axi4_master_seq_item_converter.sv(228) @ 210: reporter [axi4_master_seq_item_conv_class] After converting awqos =  0
# UVM_INFO ../../src/dv/hvl_top/axi4_master_agent//axi4_master_seq_item_converter.sv(231) @ 210: reporter [axi4_master_seq_item_conv_class] After converting wait_count_write_address_channel =  0
# UVM_INFO ../../src/dv/hvl_top/axi4_master_agent//axi4_master_seq_item_converter.sv(248) @ 210: reporter [axi4_master_seq_item_conv_class] After converting wlast =  0
# UVM_INFO ../../src/dv/hvl_top/axi4_master_agent//axi4_master_seq_item_converter.sv(251) @ 210: reporter [axi4_master_seq_item_conv_class] After converting wuser =  0
# UVM_INFO ../../src/dv/hvl_top/axi4_master_agent//axi4_master_seq_item_converter.sv(254) @ 210: reporter [axi4_master_seq_item_conv_class] After converting wait_count_write_data_channel =  0
# UVM_INFO ../../src/dv/hvl_top/axi4_master_agent//axi4_master_seq_item_converter.sv(257) @ 210: reporter [axi4_master_seq_item_conv_class] After converting bid =  0000000000000000
# UVM_INFO ../../src/dv/hvl_top/axi4_master_agent//axi4_master_seq_item_converter.sv(260) @ 210: reporter [axi4_master_seq_item_conv_class] After converting bresp =  00
# UVM_INFO ../../src/dv/hvl_top/axi4_master_agent//axi4_master_seq_item_converter.sv(263) @ 210: reporter [axi4_master_seq_item_conv_class] After converting wait_count_write_response_channel = 0
# UVM_INFO ../../src/dv/hvl_top/axi4_master_agent//axi4_master_seq_item_converter.sv(384) @ 210: reporter [axi4_master_seq_item_conv_class] ----------------------------------------------------------------------
# UVM_INFO ../../src/dv/hvl_top/axi4_master_agent//axi4_master_seq_item_converter.sv(402) @ 210: reporter [axi4_master_seq_item_conv_class] After converting wdata[0] =  1
# UVM_INFO ../../src/dv/hvl_top/axi4_master_agent//axi4_master_seq_item_converter.sv(409) @ 210: reporter [axi4_master_seq_item_conv_class] After converting wstrb[0] =  0
# UVM_INFO ../../src/dv/hvl_top/axi4_master_agent//axi4_master_seq_item_converter.sv(417) @ 210: reporter [axi4_master_seq_item_conv_class] After converting =  -----------------------------------------------------------------------------------
# Name                                 Type            Size  Value                   
# -----------------------------------------------------------------------------------
# axi4_master_tx                       axi4_master_tx  -     @2416                   
#   tx_type                            string          5     WRITE                   
#   awid                               string          6     AWID_0                  
#   awaddr                             integral        32    'h1a102004              
#   awlen                              integral        8     'd0                     
#   awsize                             string          13    WRITE_4_BYTES           
#   awburst                            string          10    WRITE_INCR              
#   awlock                             string          19    WRITE_NORMAL_ACCESS     
#   awcache                            string          16    WRITE_BUFFERABLE        
#   awprot                             string          24    WRITE_NORMAL_SECURE_DATA
#   awqos                              integral        4     'h0                     
#   wait_count_write_address_channel   integral        32    'h0                     
#   wdata[0]                           integral        64    'h1                     
#   wstrb[0]                           integral        8     'h0                     
#   wait_count_write_data_channel      integral        32    'h0                     
#   bid                                string          5     BID_0                   
#   bresp                              string          10    WRITE_OKAY              
#   no_of_wait_states                  integral        32    'd0                     
#   wait_count_write_response_channel  integral        32    'h0                     
#   transfer_type                      string          14    BLOCKING_WRITE          
# -----------------------------------------------------------------------------------
# 
# UVM_INFO ../../src/dv/hvl_top/axi4_master_agent//axi4_master_monitor_proxy.sv(220) @ 210: uvm_test_top.pulpino_spi_master_subsystem_env.axi4_master_agent.axi4_master_mon_proxy_h [axi4_master_monitor_proxy] Packet received from axi4_write_response clone packet is 
#  -----------------------------------------------------------------------------------
# Name                                 Type            Size  Value                   
# -----------------------------------------------------------------------------------
# axi4_master_tx                       axi4_master_tx  -     @2420                   
#   tx_type                            string          5     WRITE                   
#   awid                               string          6     AWID_0                  
#   awaddr                             integral        32    'h1a102004              
#   awlen                              integral        8     'd0                     
#   awsize                             string          13    WRITE_4_BYTES           
#   awburst                            string          10    WRITE_INCR              
#   awlock                             string          19    WRITE_NORMAL_ACCESS     
#   awcache                            string          16    WRITE_BUFFERABLE        
#   awprot                             string          24    WRITE_NORMAL_SECURE_DATA
#   awqos                              integral        4     'h0                     
#   wait_count_write_address_channel   integral        32    'h0                     
#   wdata[0]                           integral        64    'h1                     
#   wstrb[0]                           integral        8     'h0                     
#   wait_count_write_data_channel      integral        32    'h0                     
#   bid                                string          5     BID_0                   
#   bresp                              string          10    WRITE_OKAY              
#   no_of_wait_states                  integral        32    'd0                     
#   wait_count_write_response_channel  integral        32    'h0                     
#   transfer_type                      string          14    BLOCKING_WRITE          
# -----------------------------------------------------------------------------------
# 
# UVM_INFO ../../src/dv/hvl_top/axi4_master_agent//axi4_master_coverage.sv(223) @ 210: uvm_test_top.pulpino_spi_master_subsystem_env.axi4_master_agent.axi4_master_cov_h [axi4_master_coverage] Before calling SAMPLE METHOD
# UVM_INFO ../../src/dv/hvl_top/axi4_master_agent//axi4_master_coverage.sv(227) @ 210: uvm_test_top.pulpino_spi_master_subsystem_env.axi4_master_agent.axi4_master_cov_h [axi4_master_coverage] After calling SAMPLE METHOD
# UVM_INFO ../../src/dv/hdl_top/axi4_master_agent_bfm/axi4_master_monitor_bfm.sv(151) @ 210: reporter [FROM MASTER MON BFM] AFTER WHILE LOOP OF WRITE RESPONSE
# UVM_INFO ../../src/dv/hvl_top/axi4_master_agent//axi4_master_adapter.sv(118) @ 210: reporter [axi4_master_adapter] The converted bus2reg packet is -----------------------------------------------------------------------------------
# Name                                 Type            Size  Value                   
# -----------------------------------------------------------------------------------
# axi4_master_tx                       axi4_master_tx  -     @2216                   
#   tx_type                            string          5     WRITE                   
#   awid                               string          6     AWID_0                  
#   awaddr                             integral        32    'h1a102004              
#   awlen                              integral        8     'd0                     
#   awsize                             string          13    WRITE_4_BYTES           
#   awburst                            string          10    WRITE_INCR              
#   awlock                             string          19    WRITE_NORMAL_ACCESS     
#   awcache                            string          16    WRITE_BUFFERABLE        
#   awprot                             string          24    WRITE_NORMAL_SECURE_DATA
#   awqos                              integral        4     'h0                     
#   wait_count_write_address_channel   integral        32    'h0                     
#   wdata[0]                           integral        64    'h1                     
#   wait_count_write_data_channel      integral        32    'h0                     
#   bid                                string          5     BID_0                   
#   bresp                              string          10    WRITE_OKAY              
#   no_of_wait_states                  integral        32    'd0                     
#   wait_count_write_response_channel  integral        32    'h0                     
#   transfer_type                      string          14    BLOCKING_WRITE          
